! Touchstone file exported from HFSS 2024.1.0
!        File:           C:/Users/phobo/Documents/Ansoft/hfss_resonance_simulator.aedt
!        Generated:      10:56:23 AM May 28, 2025
!        Design:         Resonator_7252612e-6GHz_2_ports_v10
!        Project:        hfss_resonance_simulator
!        Setup:          Setup1
!        Solution:       Sweep
!
# GHz S MA R 50.000000
! Terminal data exported
! Port[1] = 1
! Port[2] = 2
5                              0.890432016090736 171.330183880005 0.455116276044471 -107.211048698011 0.455116276044472 -107.211048698011 0.890432016090736 154.247718723972 
! Gamma         0                0                0                0                
! Port Impedance         50               0                50               0                
5.0004                         0.890437021606281 171.326199781406 0.455106484818329 -107.215837640922 0.45510648481833 -107.215837640922 0.8904370422707  154.242119981176 
! Gamma         0                0                0                0                
! Port Impedance         50               0                50               0                
5.0008                         0.890442024883614 171.322215794233 0.455096697735478 -107.220626512705 0.455096697735479 -107.220626512705 0.890442066208588 154.236521296977 
! Gamma         0                0                0                0                
! Port Impedance         50               0                50               0                
5.0012                         0.89044702592313 171.318231918395 0.455086914795225 -107.225415313429 0.455086914795226 -107.225415313429 0.890447087905029 154.230922671308 
! Gamma         0                0                0                0                
! Port Impedance         50               0                50               0                
5.0016                         0.890452024725223 171.314248153801 0.455077135996879 -107.230204043165 0.455077135996879 -107.230204043165 0.890452107360654 154.225324104101 
! Gamma         0                0                0                0                
! Port Impedance         50               0                50               0                
5.002                          0.890457021290289 171.310264500359 0.455067361339747 -107.234992701983 0.455067361339748 -107.234992701983 0.890457124576096 154.219725595289 
! Gamma         0                0                0                0                
! Port Impedance         50               0                50               0                
5.0024                         0.89046201561872 171.306280957978 0.455057590823138 -107.239781289953 0.455057590823139 -107.239781289953 0.89046213955199 154.214127144802 
! Gamma         0                0                0                0                
! Port Impedance         50               0                50               0                
5.0028                         0.890467007710912 171.302297526567 0.455047824446362 -107.244569807145 0.455047824446363 -107.244569807145 0.89046715228897 154.208528752575 
! Gamma         0                0                0                0                
! Port Impedance         50               0                50               0                
5.0032                         0.890471997567257 171.298314206035 0.455038062208729 -107.249358253629 0.45503806220873 -107.249358253629 0.890472162787676 154.202930418538 
! Gamma         0                0                0                0                
! Port Impedance         50               0                50               0                
5.0036                         0.89047698518815 171.294330996289 0.45502830410955 -107.254146629476 0.455028304109551 -107.254146629476 0.890477171048745 154.197332142626 
! Gamma         0                0                0                0                
! Port Impedance         50               0                50               0                
5.004                          0.890481970573982 171.290347897238 0.455018550148136 -107.258934934755 0.455018550148137 -107.258934934755 0.89048217707282 154.19173392477  
! Gamma         0                0                0                0                
! Port Impedance         50               0                50               0                
5.0044                         0.890486953725148 171.286364908791 0.455008800323798 -107.263723169536 0.4550088003238  -107.263723169537 0.890487180860542 154.186135764904 
! Gamma         0                0                0                0                
! Port Impedance         50               0                50               0                
5.0048                         0.890491934642039 171.282382030856 0.454999054635851 -107.26851133389 0.454999054635852 -107.268511333891 0.890492182412556 154.18053766296  
! Gamma         0                0                0                0                
! Port Impedance         50               0                50               0                
5.0052                         0.890496913325047 171.278399263342 0.454989313083606 -107.273299427887 0.454989313083607 -107.273299427887 0.890497181729509 154.174939618871 
! Gamma         0                0                0                0                
! Port Impedance         50               0                50               0                
5.0056                         0.890501889774565 171.274416606156 0.454979575666378 -107.278087451596 0.45497957566638 -107.278087451596 0.890502178812047 154.169341632572 
! Gamma         0                0                0                0                
! Port Impedance         50               0                50               0                
5.006                          0.890506863990985 171.270434059207 0.454969842383482 -107.282875405088 0.454969842383483 -107.282875405088 0.890507173660822 154.163743703994 
! Gamma         0                0                0                0                
! Port Impedance         50               0                50               0                
5.0064                         0.890511835974696 171.266451622403 0.454960113234232 -107.287663288432 0.454960113234233 -107.287663288432 0.890512166276485 154.158145833072 
! Gamma         0                0                0                0                
! Port Impedance         50               0                50               0                
5.0068                         0.890516805726091 171.262469295651 0.454950388217944 -107.292451101698 0.454950388217946 -107.292451101698 0.890517156659688 154.152548019739 
! Gamma         0                0                0                0                
! Port Impedance         50               0                50               0                
5.0072                         0.890521773245561 171.25848707886  0.454940667333936 -107.297238844957 0.454940667333937 -107.297238844957 0.890522144811089 154.146950263929 
! Gamma         0                0                0                0                
! Port Impedance         50               0                50               0                
5.0076                         0.890526738533495 171.254504971939 0.454930950581524 -107.302026518278 0.454930950581525 -107.302026518278 0.890527130731343 154.141352565576 
! Gamma         0                0                0                0                
! Port Impedance         50               0                50               0                
5.008                          0.890531701590284 171.250522974793 0.454921237960026 -107.306814121732 0.454921237960027 -107.306814121732 0.89053211442111 154.135754924614 
! Gamma         0                0                0                0                
! Port Impedance         50               0                50               0                
5.0084                         0.890536662416317 171.246541087332 0.45491152946876 -107.311601655387 0.454911529468762 -107.311601655387 0.890537095881051 154.130157340976 
! Gamma         0                0                0                0                
! Port Impedance         50               0                50               0                
5.0088                         0.890541621011985 171.242559309464 0.454901825107047 -107.316389119315 0.454901825107048 -107.316389119315 0.89054207511183 154.124559814598 
! Gamma         0                0                0                0                
! Port Impedance         50               0                50               0                
5.0092                         0.890546577377677 171.238577641095 0.454892124874205 -107.321176513584 0.454892124874207 -107.321176513584 0.89054705211411 154.118962345414 
! Gamma         0                0                0                0                
! Port Impedance         50               0                50               0                
5.0096                         0.890551531513781 171.234596082133 0.454882428769556 -107.325963838265 0.454882428769558 -107.325963838266 0.89055202688856 154.113364933358 
! Gamma         0                0                0                0                
! Port Impedance         50               0                50               0                
5.01                           0.890556483420686 171.230614632486 0.454872736792421 -107.330751093428 0.454872736792423 -107.330751093428 0.890556999435848 154.107767578365 
! Gamma         0                0                0                0                
! Port Impedance         50               0                50               0                
5.0104                         0.89056143309878 171.226633292062 0.454863048942122 -107.335538279142 0.454863048942124 -107.335538279143 0.890561969756645 154.102170280371 
! Gamma         0                0                0                0                
! Port Impedance         50               0                50               0                
5.0108                         0.890566380548452 171.222652060768 0.454853365217981 -107.340325395478 0.454853365217983 -107.340325395478 0.890566937851625 154.09657303931  
! Gamma         0                0                0                0                
! Port Impedance         50               0                50               0                
5.0112                         0.890571325770089 171.21867093851  0.454843685619323 -107.345112442505 0.454843685619325 -107.345112442505 0.890571903721463 154.090975855117 
! Gamma         0                0                0                0                
! Port Impedance         50               0                50               0                
5.0116                         0.890576268764079 171.214689925197 0.454834010145471 -107.349899420293 0.454834010145473 -107.349899420293 0.890576867366836 154.085378727729 
! Gamma         0                0                0                0                
! Port Impedance         50               0                50               0                
5.012                          0.890581209530809 171.210709020736 0.454824338795751 -107.354686328911 0.454824338795753 -107.354686328912 0.890581828788424 154.07978165708  
! Gamma         0                0                0                0                
! Port Impedance         50               0                50               0                
5.0124                         0.890586148070665 171.206728225034 0.454814671569487 -107.359473168431 0.454814671569489 -107.359473168431 0.890586787986908 154.074184643107 
! Gamma         0                0                0                0                
! Port Impedance         50               0                50               0                
5.0128                         0.890591084384035 171.202747537998 0.454805008466008 -107.36425993892 0.454805008466009 -107.364259938921 0.890591744962974 154.068587685746 
! Gamma         0                0                0                0                
! Port Impedance         50               0                50               0                
5.0132                         0.890596018471304 171.198766959534 0.454795349484638 -107.36904664045 0.45479534948464 -107.36904664045 0.890596699717305 154.062990784932 
! Gamma         0                0                0                0                
! Port Impedance         50               0                50               0                
5.0136                         0.890600950332858 171.194786489551 0.454785694624707 -107.37383327309 0.45478569462471 -107.37383327309 0.890601652250591 154.057393940602 
! Gamma         0                0                0                0                
! Port Impedance         50               0                50               0                
5.014                          0.890605879969083 171.190806127954 0.454776043885544 -107.378619836909 0.454776043885546 -107.37861983691 0.890606602563524 154.051797152693 
! Gamma         0                0                0                0                
! Port Impedance         50               0                50               0                
5.0144                         0.890610807380364 171.186825874651 0.454766397266477 -107.383406331978 0.454766397266479 -107.383406331979 0.890611550656794 154.046200421142 
! Gamma         0                0                0                0                
! Port Impedance         50               0                50               0                
5.0148                         0.890615732567086 171.182845729548 0.454756754766837 -107.388192758367 0.454756754766839 -107.388192758367 0.890616496531099 154.040603745886 
! Gamma         0                0                0                0                
! Port Impedance         50               0                50               0                
5.0152                         0.890620655529633 171.178865692553 0.454747116385955 -107.392979116144 0.454747116385957 -107.392979116144 0.890621440187135 154.035007126861 
! Gamma         0                0                0                0                
! Port Impedance         50               0                50               0                
5.0156                         0.89062557626839 171.174885763571 0.454737482123162 -107.39776540538 0.454737482123164 -107.39776540538 0.890626381625602 154.029410564005 
! Gamma         0                0                0                0                
! Port Impedance         50               0                50               0                
5.016                          0.890630494783741 171.17090594251  0.454727851977792 -107.402551626145 0.454727851977794 -107.402551626145 0.890631320847203 154.023814057256 
! Gamma         0                0                0                0                
! Port Impedance         50               0                50               0                
5.0164                         0.890635411076069 171.166926229276 0.454718225949177 -107.407337778508 0.454718225949179 -107.407337778508 0.890636257852642 154.018217606552 
! Gamma         0                0                0                0                
! Port Impedance         50               0                50               0                
5.0168                         0.890640325145758 171.162946623774 0.454708604036651 -107.412123862539 0.454708604036653 -107.412123862539 0.890641192642627 154.012621211831 
! Gamma         0                0                0                0                
! Port Impedance         50               0                50               0                
5.0172                         0.890645236993191 171.158967125913 0.45469898623955 -107.416909878307 0.454698986239552 -107.416909878308 0.890646125217868 154.00702487303  
! Gamma         0                0                0                0                
! Port Impedance         50               0                50               0                
5.0176                         0.89065014661875 171.154987735597 0.454689372557209 -107.421695825883 0.454689372557211 -107.421695825884 0.890651055579076 154.00142859009  
! Gamma         0                0                0                0                
! Port Impedance         50               0                50               0                
5.018                          0.890655054022818 171.151008452734 0.454679762988964 -107.426481705337 0.454679762988967 -107.426481705337 0.890655983726966 153.995832362948 
! Gamma         0                0                0                0                
! Port Impedance         50               0                50               0                
5.0184                         0.890659959205777 171.147029277229 0.454670157534154 -107.431267516737 0.454670157534157 -107.431267516737 0.890660909662256 153.990236191544 
! Gamma         0                0                0                0                
! Port Impedance         50               0                50               0                
5.0188                         0.890664862168008 171.143050208988 0.454660556192116 -107.436053260154 0.454660556192119 -107.436053260154 0.890665833385665 153.984640075817 
! Gamma         0                0                0                0                
! Port Impedance         50               0                50               0                
5.0192                         0.890669762909893 171.139071247918 0.45465095896219 -107.440838935657 0.454650958962192 -107.440838935658 0.890670754897916 153.979044015706 
! Gamma         0                0                0                0                
! Port Impedance         50               0                50               0                
5.0196                         0.890674661431813 171.135092393925 0.454641365843714 -107.445624543317 0.454641365843717 -107.445624543317 0.890675674199734 153.973448011152 
! Gamma         0                0                0                0                
! Port Impedance         50               0                50               0                
5.02                           0.890679557734148 171.131113646914 0.45463177683603 -107.450410083202 0.454631776836033 -107.450410083202 0.890680591291847 153.967852062094 
! Gamma         0                0                0                0                
! Port Impedance         50               0                50               0                
5.0204                         0.890684451817278 171.127135006791 0.45462219193848 -107.455195555383 0.454622191938482 -107.455195555383 0.890685506174985 153.962256168473 
! Gamma         0                0                0                0                
! Port Impedance         50               0                50               0                
5.0208                         0.890689343681585 171.123156473462 0.454612611150405 -107.459980959929 0.454612611150408 -107.459980959929 0.890690418849882 153.95666033023  
! Gamma         0                0                0                0                
! Port Impedance         50               0                50               0                
5.0212                         0.890694233327447 171.119178046833 0.45460303447115 -107.46476629691 0.454603034471152 -107.464766296911 0.890695329317272 153.951064547306 
! Gamma         0                0                0                0                
! Port Impedance         50               0                50               0                
5.0216                         0.890699120755243 171.115199726809 0.454593461900057 -107.469551566396 0.454593461900059 -107.469551566397 0.890700237577896 153.945468819641 
! Gamma         0                0                0                0                
! Port Impedance         50               0                50               0                
5.022                          0.890704005965353 171.111221513296 0.454583893436472 -107.474336768457 0.454583893436475 -107.474336768457 0.890705143632494 153.939873147178 
