! Created with skrf (http://scikit-rf.org).
# Hz S RI R 50.0 
!freq ReS11 ImS11 ReS21 ImS21 ReS12 ImS12 ReS22 ImS22
6055802860.0 0.0 0.0 2.049773684120737e-05 0.00011156547407153994 0.0 0.0 0.0 0.0
6055822860.0 0.0 0.0 1.8582690245239064e-05 0.00011511445336509496 0.0 0.0 0.0 0.0
6055842860.0 0.0 0.0 4.108289431314915e-06 0.00012149782560300082 0.0 0.0 0.0 0.0
6055862860.0 0.0 0.0 1.7631540686124936e-05 0.00011137885303469375 0.0 0.0 0.0 0.0
6055882860.0 0.0 0.0 1.681358480709605e-05 9.713174222270027e-05 0.0 0.0 0.0 0.0
6055902860.0 0.0 0.0 4.6948829549364746e-05 0.00010984783875755966 0.0 0.0 0.0 0.0
6055922860.0 0.0 0.0 3.0361903554876335e-05 0.00011741573689505458 0.0 0.0 0.0 0.0
6055942860.0 0.0 0.0 1.0413850759505294e-05 0.00011478025407996029 0.0 0.0 0.0 0.0
6055962860.0 0.0 0.0 3.4842447348637506e-05 0.0001070380603778176 0.0 0.0 0.0 0.0
6055982860.0 0.0 0.0 2.5806150006246753e-05 0.00010443650535307825 0.0 0.0 0.0 0.0
6056002860.0 0.0 0.0 4.177358641754836e-05 0.00011724267096724361 0.0 0.0 0.0 0.0
6056022860.0 0.0 0.0 2.0712737750727683e-05 9.53600974753499e-05 0.0 0.0 0.0 0.0
6056042860.0 0.0 0.0 1.7398631825926714e-05 0.0001178890306618996 0.0 0.0 0.0 0.0
6056062860.0 0.0 0.0 2.299425432283897e-05 0.00011548666225280613 0.0 0.0 0.0 0.0
6056082860.0 0.0 0.0 3.902158641722053e-05 0.00010044281225418672 0.0 0.0 0.0 0.0
6056102860.0 0.0 0.0 3.809911504504271e-05 0.00011032167094526812 0.0 0.0 0.0 0.0
6056122860.0 0.0 0.0 4.336450365372002e-05 0.00012013204104732722 0.0 0.0 0.0 0.0
6056142860.0 0.0 0.0 4.4421023631002754e-05 0.00010542110976530239 0.0 0.0 0.0 0.0
6056162860.0 0.0 0.0 4.971665475750342e-05 0.00010303741146344692 0.0 0.0 0.0 0.0
6056182860.0 0.0 0.0 3.2623127481201664e-05 9.497500286670402e-05 0.0 0.0 0.0 0.0
6056202860.0 0.0 0.0 4.740003714687191e-05 0.0001188639216707088 0.0 0.0 0.0 0.0
6056222860.0 0.0 0.0 4.2003717680927366e-05 0.00011142698349431157 0.0 0.0 0.0 0.0
6056242860.0 0.0 0.0 3.9859613025328144e-05 0.00010936659964499995 0.0 0.0 0.0 0.0
6056262860.0 0.0 0.0 2.7353056793799624e-05 0.00012567421072162688 0.0 0.0 0.0 0.0
6056282860.0 0.0 0.0 6.034193211235106e-05 9.67075684457086e-05 0.0 0.0 0.0 0.0
6056302860.0 0.0 0.0 3.857156843878329e-05 0.00010454869334353134 0.0 0.0 0.0 0.0
6056322860.0 0.0 0.0 4.9336926167597994e-05 8.577493281336501e-05 0.0 0.0 0.0 0.0
6056342860.0 0.0 0.0 3.546422522049397e-05 0.00010372293036198243 0.0 0.0 0.0 0.0
6056362860.0 0.0 0.0 4.905691457679495e-05 9.407103789271787e-05 0.0 0.0 0.0 0.0
6056382860.0 0.0 0.0 4.5200184104032815e-05 0.00011154092499054968 0.0 0.0 0.0 0.0
6056402860.0 0.0 0.0 4.621832704287954e-05 0.00011405746772652492 0.0 0.0 0.0 0.0
6056422860.0 0.0 0.0 3.151413693558425e-05 0.00011370316497050226 0.0 0.0 0.0 0.0
6056442860.0 0.0 0.0 5.375836917664856e-05 9.922267781803384e-05 0.0 0.0 0.0 0.0
6056462860.0 0.0 0.0 4.894235826213844e-05 0.0001012000793707557 0.0 0.0 0.0 0.0
6056482860.0 0.0 0.0 3.746676156879403e-05 0.00010079655476147309 0.0 0.0 0.0 0.0
6056502860.0 0.0 0.0 5.660335591528565e-05 0.0001008850013022311 0.0 0.0 0.0 0.0
6056522860.0 0.0 0.0 6.571223639184609e-05 0.00010002817725762725 0.0 0.0 0.0 0.0
6056542860.0 0.0 0.0 6.199043855303898e-05 9.906438936013728e-05 0.0 0.0 0.0 0.0
6056562860.0 0.0 0.0 6.005446266499348e-05 9.248741116607562e-05 0.0 0.0 0.0 0.0
6056582860.0 0.0 0.0 6.591608689632267e-05 0.00010620920511428267 0.0 0.0 0.0 0.0
6056602860.0 0.0 0.0 6.450916407629848e-05 9.282133396482095e-05 0.0 0.0 0.0 0.0
6056622860.0 0.0 0.0 5.0307626224821433e-05 9.853504889179021e-05 0.0 0.0 0.0 0.0
6056642860.0 0.0 0.0 4.95152453368064e-05 9.761833644006401e-05 0.0 0.0 0.0 0.0
6056662860.0 0.0 0.0 5.628562212223187e-05 9.746973955770954e-05 0.0 0.0 0.0 0.0
6056682860.0 0.0 0.0 5.893395791645162e-05 0.00010988191934302449 0.0 0.0 0.0 0.0
6056702860.0 0.0 0.0 6.79900695104152e-05 8.993261872092262e-05 0.0 0.0 0.0 0.0
6056722860.0 0.0 0.0 7.166471186792478e-05 9.460579894948751e-05 0.0 0.0 0.0 0.0
6056742860.0 0.0 0.0 6.854288221802562e-05 9.768921154318377e-05 0.0 0.0 0.0 0.0
6056762860.0 0.0 0.0 6.583442882401869e-05 9.982760821003467e-05 0.0 0.0 0.0 0.0
6056782860.0 0.0 0.0 7.721463771304116e-05 0.00010618168744258583 0.0 0.0 0.0 0.0
6056802860.0 0.0 0.0 6.995561125222594e-05 0.00010921927605522797 0.0 0.0 0.0 0.0
6056822860.0 0.0 0.0 5.830607915413566e-05 9.776779916137457e-05 0.0 0.0 0.0 0.0
6056842860.0 0.0 0.0 8.345511741936207e-05 8.591808000346646e-05 0.0 0.0 0.0 0.0
6056862860.0 0.0 0.0 7.252924115164205e-05 9.100333409151062e-05 0.0 0.0 0.0 0.0
6056882860.0 0.0 0.0 9.56813310040161e-05 7.750581426080316e-05 0.0 0.0 0.0 0.0
6056902860.0 0.0 0.0 7.931362779345363e-05 0.00011593539966270328 0.0 0.0 0.0 0.0
6056922860.0 0.0 0.0 0.00011054169590352103 0.00011033337068511173 0.0 0.0 0.0 0.0
6056942860.0 0.0 0.0 8.392809104407206e-05 9.59319804678671e-05 0.0 0.0 0.0 0.0
6056962860.0 0.0 0.0 7.847834785934538e-05 7.97388784121722e-05 0.0 0.0 0.0 0.0
6056982860.0 0.0 0.0 9.329621389042586e-05 8.140222780639306e-05 0.0 0.0 0.0 0.0
6057002860.0 0.0 0.0 5.393875471781939e-05 9.386597957927734e-05 0.0 0.0 0.0 0.0
6057022860.0 0.0 0.0 8.730531408218667e-05 8.287959644803777e-05 0.0 0.0 0.0 0.0
6057042860.0 0.0 0.0 6.716565985698253e-05 8.45657559693791e-05 0.0 0.0 0.0 0.0
6057062860.0 0.0 0.0 9.135990694630891e-05 9.01020976016298e-05 0.0 0.0 0.0 0.0
6057082860.0 0.0 0.0 7.858691969886422e-05 9.697012137621641e-05 0.0 0.0 0.0 0.0
6057102860.0 0.0 0.0 0.00010396327706985176 8.262560004368424e-05 0.0 0.0 0.0 0.0
6057122860.0 0.0 0.0 6.71482557663694e-05 8.790531137492508e-05 0.0 0.0 0.0 0.0
6057142860.0 0.0 0.0 8.351323049282655e-05 9.257494821213186e-05 0.0 0.0 0.0 0.0
6057162860.0 0.0 0.0 8.380828512599692e-05 8.008045551832765e-05 0.0 0.0 0.0 0.0
6057182860.0 0.0 0.0 8.885583520168439e-05 7.605525752296671e-05 0.0 0.0 0.0 0.0
6057202860.0 0.0 0.0 8.104791777441278e-05 8.314735168823972e-05 0.0 0.0 0.0 0.0
6057222860.0 0.0 0.0 8.676949801156297e-05 7.00612145010382e-05 0.0 0.0 0.0 0.0
6057242860.0 0.0 0.0 9.277977369492874e-05 7.493628800148144e-05 0.0 0.0 0.0 0.0
6057262860.0 0.0 0.0 9.452206722926348e-05 6.65925836074166e-05 0.0 0.0 0.0 0.0
6057282860.0 0.0 0.0 9.583235078025609e-05 8.175514813046902e-05 0.0 0.0 0.0 0.0
6057302860.0 0.0 0.0 8.445799903711304e-05 7.632638880750164e-05 0.0 0.0 0.0 0.0
6057322860.0 0.0 0.0 9.21464161365293e-05 8.291524136438966e-05 0.0 0.0 0.0 0.0
6057342860.0 0.0 0.0 9.39712772378698e-05 6.974770803935826e-05 0.0 0.0 0.0 0.0
6057362860.0 0.0 0.0 0.00012597670138347894 6.820027192588896e-05 0.0 0.0 0.0 0.0
6057382860.0 0.0 0.0 9.343327110400423e-05 7.817560253897682e-05 0.0 0.0 0.0 0.0
6057402860.0 0.0 0.0 8.429538866039366e-05 7.854560681153089e-05 0.0 0.0 0.0 0.0
6057422860.0 0.0 0.0 9.42596816457808e-05 7.326198101509362e-05 0.0 0.0 0.0 0.0
6057442860.0 0.0 0.0 0.00010224694415228441 8.190240623662248e-05 0.0 0.0 0.0 0.0
6057462860.0 0.0 0.0 0.00011082037963205948 6.949501403141767e-05 0.0 0.0 0.0 0.0
6057482860.0 0.0 0.0 9.738727385411039e-05 6.905458576511592e-05 0.0 0.0 0.0 0.0
6057502860.0 0.0 0.0 0.00011563603766262531 5.207271533436142e-05 0.0 0.0 0.0 0.0
6057522860.0 0.0 0.0 0.00010014817235060036 9.157572640106082e-05 0.0 0.0 0.0 0.0
6057542860.0 0.0 0.0 9.57435549935326e-05 7.36204965505749e-05 0.0 0.0 0.0 0.0
6057562860.0 0.0 0.0 9.650952415540814e-05 5.36301959073171e-05 0.0 0.0 0.0 0.0
6057582860.0 0.0 0.0 0.00010498299525352195 6.771221524104476e-05 0.0 0.0 0.0 0.0
6057602860.0 0.0 0.0 8.719292964087799e-05 6.573039718205109e-05 0.0 0.0 0.0 0.0
6057622860.0 0.0 0.0 0.0001002436110866256 6.084235792513937e-05 0.0 0.0 0.0 0.0
6057642860.0 0.0 0.0 0.00011314706353005022 6.293047772487625e-05 0.0 0.0 0.0 0.0
6057662860.0 0.0 0.0 0.00010897040920099244 6.207351543707773e-05 0.0 0.0 0.0 0.0
6057682860.0 0.0 0.0 8.951115160016343e-05 8.223993791034445e-05 0.0 0.0 0.0 0.0
6057702860.0 0.0 0.0 9.490101365372539e-05 5.626211714115925e-05 0.0 0.0 0.0 0.0
6057722860.0 0.0 0.0 0.00011514127982081845 5.000263990950771e-05 0.0 0.0 0.0 0.0
6057742860.0 0.0 0.0 0.00010196153016295284 5.552099901251495e-05 0.0 0.0 0.0 0.0
6057762860.0 0.0 0.0 0.00011114894732600078 3.651774022728205e-05 0.0 0.0 0.0 0.0
6057782860.0 0.0 0.0 0.00011746513337129727 5.08520461153239e-05 0.0 0.0 0.0 0.0
6057802860.0 0.0 0.0 0.00010757915151771158 5.0798265874618664e-05 0.0 0.0 0.0 0.0
6057822860.0 0.0 0.0 0.00010521097283344716 4.2786006815731525e-05 0.0 0.0 0.0 0.0
6057842860.0 0.0 0.0 0.00011136710236314684 4.2967651097569615e-05 0.0 0.0 0.0 0.0
6057862860.0 0.0 0.0 0.0001200656479340978 5.003733531339094e-05 0.0 0.0 0.0 0.0
6057882860.0 0.0 0.0 0.00011364566307747737 6.550483522005379e-05 0.0 0.0 0.0 0.0
6057902860.0 0.0 0.0 0.00012853278894908726 4.278223423170857e-05 0.0 0.0 0.0 0.0
6057922860.0 0.0 0.0 0.00011125187302241102 4.1011193388840184e-05 0.0 0.0 0.0 0.0
6057942860.0 0.0 0.0 0.00011159985297126696 4.699559576692991e-05 0.0 0.0 0.0 0.0
6057962860.0 0.0 0.0 0.00013580724771600217 2.952842623926699e-05 0.0 0.0 0.0 0.0
6057982860.0 0.0 0.0 0.00012025886098854244 5.785717075923458e-05 0.0 0.0 0.0 0.0
6058002860.0 0.0 0.0 0.00011332966096233577 5.4580876167165115e-05 0.0 0.0 0.0 0.0
6058022860.0 0.0 0.0 0.00010794268746394664 4.929013812215999e-05 0.0 0.0 0.0 0.0
6058042860.0 0.0 0.0 0.00013862221385352314 3.5350301914149895e-05 0.0 0.0 0.0 0.0
6058062860.0 0.0 0.0 0.00010583578841760755 3.496522185741924e-05 0.0 0.0 0.0 0.0
6058082860.0 0.0 0.0 0.00012118016456952319 4.3330801418051124e-05 0.0 0.0 0.0 0.0
6058102860.0 0.0 0.0 0.00012122518819523975 4.481162613956258e-05 0.0 0.0 0.0 0.0
6058122860.0 0.0 0.0 0.00011892339534824714 4.8063444410217926e-05 0.0 0.0 0.0 0.0
6058142860.0 0.0 0.0 0.0001156437283498235 6.697775097563863e-05 0.0 0.0 0.0 0.0
6058162860.0 0.0 0.0 0.0001294787653023377 3.4132037399103865e-05 0.0 0.0 0.0 0.0
6058182860.0 0.0 0.0 0.00012196668103570119 3.622005897341296e-05 0.0 0.0 0.0 0.0
6058202860.0 0.0 0.0 0.000125642676721327 4.2276678868802264e-05 0.0 0.0 0.0 0.0
6058222860.0 0.0 0.0 0.00010491270950296894 3.4650973248062655e-05 0.0 0.0 0.0 0.0
6058242860.0 0.0 0.0 0.0001269465865334496 3.8678637793054804e-05 0.0 0.0 0.0 0.0
6058262860.0 0.0 0.0 0.00011104566510766745 3.0350018278113566e-05 0.0 0.0 0.0 0.0
6058282860.0 0.0 0.0 0.00011464759154478088 3.1766070605954155e-05 0.0 0.0 0.0 0.0
6058302860.0 0.0 0.0 0.00011883224215125665 3.32074414473027e-05 0.0 0.0 0.0 0.0
6058322860.0 0.0 0.0 0.0001137623839895241 4.21586082666181e-05 0.0 0.0 0.0 0.0
6058342860.0 0.0 0.0 0.00015068512584548444 1.4834085050097201e-05 0.0 0.0 0.0 0.0
6058362860.0 0.0 0.0 0.00014298234600573778 3.580024349503219e-05 0.0 0.0 0.0 0.0
6058382860.0 0.0 0.0 0.0001335764827672392 2.672878144949209e-05 0.0 0.0 0.0 0.0
6058402860.0 0.0 0.0 0.00011482992704259232 2.0455096091609448e-05 0.0 0.0 0.0 0.0
6058422860.0 0.0 0.0 0.000130393571453169 1.1823997738247272e-05 0.0 0.0 0.0 0.0
6058442860.0 0.0 0.0 0.000129280291730538 1.8231106878374703e-05 0.0 0.0 0.0 0.0
6058462860.0 0.0 0.0 0.00013494552695192397 2.2757783881388605e-05 0.0 0.0 0.0 0.0
6058482860.0 0.0 0.0 0.00011217836436117068 4.263950540916994e-05 0.0 0.0 0.0 0.0
6058502860.0 0.0 0.0 0.00013572858006227762 1.3897076314606238e-05 0.0 0.0 0.0 0.0
6058522860.0 0.0 0.0 0.0001458002661820501 2.188788857893087e-05 0.0 0.0 0.0 0.0
6058542860.0 0.0 0.0 0.00013651802146341652 3.0384873753064312e-05 0.0 0.0 0.0 0.0
6058562860.0 0.0 0.0 0.00012993857671972364 6.40329801626649e-07 0.0 0.0 0.0 0.0
6058582860.0 0.0 0.0 0.00011337032628944144 6.797542937420076e-06 0.0 0.0 0.0 0.0
6058602860.0 0.0 0.0 0.00012918120773974806 3.702398544191965e-06 0.0 0.0 0.0 0.0
6058622860.0 0.0 0.0 0.00010933801968349144 1.0592701073619537e-05 0.0 0.0 0.0 0.0
6058642860.0 0.0 0.0 0.00011529822222655639 8.52537323225988e-06 0.0 0.0 0.0 0.0
6058662860.0 0.0 0.0 0.0001366245123790577 5.1458710004226305e-06 0.0 0.0 0.0 0.0
6058682860.0 0.0 0.0 0.000148675317177549 2.0564806618494913e-05 0.0 0.0 0.0 0.0
6058702860.0 0.0 0.0 0.0001302757882513106 4.594357505993685e-06 0.0 0.0 0.0 0.0
6058722860.0 0.0 0.0 0.0001298882270930335 1.0437140190333594e-05 0.0 0.0 0.0 0.0
6058742860.0 0.0 0.0 0.00013588040019385517 1.7255068769372883e-06 0.0 0.0 0.0 0.0
6058762860.0 0.0 0.0 0.00013284955639392138 -1.4041087524674367e-05 0.0 0.0 0.0 0.0
6058782860.0 0.0 0.0 0.0001373376726405695 4.213559350318974e-06 0.0 0.0 0.0 0.0
6058802860.0 0.0 0.0 0.0001377128210151568 1.7295581073994981e-06 0.0 0.0 0.0 0.0
6058822860.0 0.0 0.0 0.00012737260840367526 4.953804364049574e-06 0.0 0.0 0.0 0.0
6058842860.0 0.0 0.0 0.00012686516856774688 -2.7665253128361655e-06 0.0 0.0 0.0 0.0
6058862860.0 0.0 0.0 0.00012993795098736882 5.618149316433119e-06 0.0 0.0 0.0 0.0
6058882860.0 0.0 0.0 0.00013441345072351396 -1.8637847460922785e-05 0.0 0.0 0.0 0.0
6058902860.0 0.0 0.0 0.00015012919902801514 1.4165757420414593e-06 0.0 0.0 0.0 0.0
6058922860.0 0.0 0.0 0.00012536311987787485 2.8322865546215326e-06 0.0 0.0 0.0 0.0
6058942860.0 0.0 0.0 0.0001436314487364143 -1.352385152131319e-05 0.0 0.0 0.0 0.0
6058962860.0 0.0 0.0 0.00012940938177052885 4.056997568113729e-06 0.0 0.0 0.0 0.0
6058982860.0 0.0 0.0 0.00014286112855188549 -1.8519833247410133e-05 0.0 0.0 0.0 0.0
6059002860.0 0.0 0.0 0.00014563216245733202 -9.661309377406724e-06 0.0 0.0 0.0 0.0
6059022860.0 0.0 0.0 0.00013185538409743458 7.071788786561228e-06 0.0 0.0 0.0 0.0
6059042860.0 0.0 0.0 0.00014317786553874612 -2.0933603082085028e-05 0.0 0.0 0.0 0.0
6059062860.0 0.0 0.0 0.00012054333637934178 -2.345556094951462e-05 0.0 0.0 0.0 0.0
6059082860.0 0.0 0.0 0.00012030802463414147 -1.1786921277234796e-05 0.0 0.0 0.0 0.0
6059102860.0 0.0 0.0 0.00014450695016421378 -2.2423011614591815e-05 0.0 0.0 0.0 0.0
6059122860.0 0.0 0.0 0.00012292040628381073 -2.6711028112913482e-05 0.0 0.0 0.0 0.0
6059142860.0 0.0 0.0 0.00014947164163459092 -3.5847609979100525e-05 0.0 0.0 0.0 0.0
6059162860.0 0.0 0.0 0.0001158254817710258 -4.543048271443695e-05 0.0 0.0 0.0 0.0
6059182860.0 0.0 0.0 0.00013949608546681702 -2.331490395590663e-05 0.0 0.0 0.0 0.0
6059202860.0 0.0 0.0 0.00013926185783930123 -1.9336561308591627e-05 0.0 0.0 0.0 0.0
6059222860.0 0.0 0.0 0.00010990506416419521 -4.5588523789774626e-05 0.0 0.0 0.0 0.0
6059242860.0 0.0 0.0 0.00014414834731724113 -3.444283356657252e-05 0.0 0.0 0.0 0.0
6059262860.0 0.0 0.0 0.00014076463412493467 -2.6002220693044364e-05 0.0 0.0 0.0 0.0
6059282860.0 0.0 0.0 0.00013247020251583308 -2.889408824557904e-05 0.0 0.0 0.0 0.0
6059302860.0 0.0 0.0 0.00013058296462986618 -2.3924540073494427e-05 0.0 0.0 0.0 0.0
6059322860.0 0.0 0.0 0.00015420312411151826 -1.6163618056452833e-05 0.0 0.0 0.0 0.0
6059342860.0 0.0 0.0 0.0001183945860248059 -5.510989285539836e-05 0.0 0.0 0.0 0.0
6059362860.0 0.0 0.0 0.0001236479583894834 -4.8831112508196384e-05 0.0 0.0 0.0 0.0
6059382860.0 0.0 0.0 0.00012550032988656312 -2.8824144465033896e-05 0.0 0.0 0.0 0.0
6059402860.0 0.0 0.0 0.00012632485595531762 -4.130453817197122e-05 0.0 0.0 0.0 0.0
6059422860.0 0.0 0.0 0.00013108148414175957 -4.596872167894617e-05 0.0 0.0 0.0 0.0
6059442860.0 0.0 0.0 0.00011510722106322646 -3.9565275073982775e-05 0.0 0.0 0.0 0.0
6059462860.0 0.0 0.0 0.00012132147821830586 -5.198101280257106e-05 0.0 0.0 0.0 0.0
6059482860.0 0.0 0.0 0.00014181880396790802 -2.9229609936010092e-05 0.0 0.0 0.0 0.0
6059502860.0 0.0 0.0 0.00011735703446902335 -2.725298509176355e-05 0.0 0.0 0.0 0.0
6059522860.0 0.0 0.0 0.00012856647663284093 -4.4865653762826696e-05 0.0 0.0 0.0 0.0
6059542860.0 0.0 0.0 0.00012915809929836541 -4.355002965894528e-05 0.0 0.0 0.0 0.0
6059562860.0 0.0 0.0 0.00012281032104510814 -4.015796730527654e-05 0.0 0.0 0.0 0.0
6059582860.0 0.0 0.0 0.00014023645780980587 -4.848506796406582e-05 0.0 0.0 0.0 0.0
6059602860.0 0.0 0.0 0.00014320656191557646 -4.639792314264923e-05 0.0 0.0 0.0 0.0
6059622860.0 0.0 0.0 0.0001177311860374175 -4.3956388253718615e-05 0.0 0.0 0.0 0.0
6059642860.0 0.0 0.0 0.00011307685781503096 -6.838851550128311e-05 0.0 0.0 0.0 0.0
6059662860.0 0.0 0.0 0.00014743882638867944 -4.175279536866583e-05 0.0 0.0 0.0 0.0
6059682860.0 0.0 0.0 0.00011679368617478758 -4.47107340733055e-05 0.0 0.0 0.0 0.0
6059702860.0 0.0 0.0 0.0001483054511481896 -5.1341794460313395e-05 0.0 0.0 0.0 0.0
6059722860.0 0.0 0.0 0.00011815023754024878 -6.236867920961231e-05 0.0 0.0 0.0 0.0
6059742860.0 0.0 0.0 0.0001225801679538563 -7.35735593480058e-05 0.0 0.0 0.0 0.0
6059762860.0 0.0 0.0 0.00014614425890613347 -5.465906360768713e-05 0.0 0.0 0.0 0.0
6059782860.0 0.0 0.0 0.00011745622759917751 -6.903495523147285e-05 0.0 0.0 0.0 0.0
6059802860.0 0.0 0.0 0.00012999793398194015 -5.419980880105868e-05 0.0 0.0 0.0 0.0
6059822860.0 0.0 0.0 0.00011162787268403918 -7.872400601627305e-05 0.0 0.0 0.0 0.0
6059842860.0 0.0 0.0 0.00011379910574760288 -5.872774272575043e-05 0.0 0.0 0.0 0.0
6059862860.0 0.0 0.0 0.00012258767674211413 -8.449145389022306e-05 0.0 0.0 0.0 0.0
6059882860.0 0.0 0.0 0.00012528026127256453 -7.227090100059286e-05 0.0 0.0 0.0 0.0
6059902860.0 0.0 0.0 0.00010823634511325508 -6.074269185774028e-05 0.0 0.0 0.0 0.0
6059922860.0 0.0 0.0 0.00011329763219691813 -6.518643203889951e-05 0.0 0.0 0.0 0.0
6059942860.0 0.0 0.0 0.00011467954755062237 -6.807527097407728e-05 0.0 0.0 0.0 0.0
6059962860.0 0.0 0.0 0.00010761134763015434 -7.478910265490413e-05 0.0 0.0 0.0 0.0
6059982860.0 0.0 0.0 0.000126112878206186 -6.438810669351369e-05 0.0 0.0 0.0 0.0
6060002860.0 0.0 0.0 0.00011708253441611305 -8.517512469552457e-05 0.0 0.0 0.0 0.0
6060022860.0 0.0 0.0 0.00012808608880732208 -7.943886885186657e-05 0.0 0.0 0.0 0.0
6060042860.0 0.0 0.0 0.00011953123612329364 -8.284210343845189e-05 0.0 0.0 0.0 0.0
6060062860.0 0.0 0.0 0.00010446458327351138 -6.303677946561947e-05 0.0 0.0 0.0 0.0
6060082860.0 0.0 0.0 0.00012130018149036914 -8.960016566561535e-05 0.0 0.0 0.0 0.0
6060102860.0 0.0 0.0 9.877898264676332e-05 -9.426557517144829e-05 0.0 0.0 0.0 0.0
6060122860.0 0.0 0.0 9.583515929989517e-05 -8.623402391094714e-05 0.0 0.0 0.0 0.0
6060142860.0 0.0 0.0 0.00010467788524692878 -7.710572390351444e-05 0.0 0.0 0.0 0.0
6060162860.0 0.0 0.0 0.00012790043547283858 -8.945906301960349e-05 0.0 0.0 0.0 0.0
6060182860.0 0.0 0.0 0.00012742908438667655 -9.859370766207576e-05 0.0 0.0 0.0 0.0
6060202860.0 0.0 0.0 0.00011562668805709109 -8.438490476692095e-05 0.0 0.0 0.0 0.0
6060222860.0 0.0 0.0 0.0001097849672078155 -8.097818499663845e-05 0.0 0.0 0.0 0.0
6060242860.0 0.0 0.0 9.788650640984997e-05 -7.969058060552925e-05 0.0 0.0 0.0 0.0
6060262860.0 0.0 0.0 0.00011710929538821802 -9.146035881713033e-05 0.0 0.0 0.0 0.0
6060282860.0 0.0 0.0 0.00010365706839365885 -7.875169103499502e-05 0.0 0.0 0.0 0.0
6060302860.0 0.0 0.0 9.31454633246176e-05 -8.759446791373193e-05 0.0 0.0 0.0 0.0
6060322860.0 0.0 0.0 0.00010159055818803608 -0.00011036470823455602 0.0 0.0 0.0 0.0
6060342860.0 0.0 0.0 0.00011371636355761439 -0.0001093731916625984 0.0 0.0 0.0 0.0
6060362860.0 0.0 0.0 0.00012020509893773124 -9.865528409136459e-05 0.0 0.0 0.0 0.0
6060382860.0 0.0 0.0 0.00011385454126866534 -8.288006210932508e-05 0.0 0.0 0.0 0.0
6060402860.0 0.0 0.0 0.00010631592886056751 -0.00010528168058954179 0.0 0.0 0.0 0.0
6060422860.0 0.0 0.0 0.00010794853733386844 -0.00010261677380185574 0.0 0.0 0.0 0.0
6060442860.0 0.0 0.0 0.00011257598816882819 -0.00010894078150158748 0.0 0.0 0.0 0.0
6060462860.0 0.0 0.0 0.00010265170567436144 -0.0001091843587346375 0.0 0.0 0.0 0.0
6060482860.0 0.0 0.0 0.00011495911894598976 -0.0001073246166924946 0.0 0.0 0.0 0.0
6060502860.0 0.0 0.0 0.00010188067244598642 -9.976921865018085e-05 0.0 0.0 0.0 0.0
6060522860.0 0.0 0.0 0.0001105573246604763 -0.00010913687583524734 0.0 0.0 0.0 0.0
6060542860.0 0.0 0.0 9.532258263789117e-05 -0.00011940123658860102 0.0 0.0 0.0 0.0
6060562860.0 0.0 0.0 9.292770846514031e-05 -0.0001122606045100838 0.0 0.0 0.0 0.0
6060582860.0 0.0 0.0 8.48317431518808e-05 -9.926089114742354e-05 0.0 0.0 0.0 0.0
6060602860.0 0.0 0.0 0.00010676819510990754 -0.00011657058348646387 0.0 0.0 0.0 0.0
