! Created with skrf (http://scikit-rf.org).
# GHz S RI R 50.0
!freq ReS11 ImS11 ReS21 ImS21 ReS12 ImS12 ReS22 ImS22
6.05580286 0.0 0.0 2.049773684120737e-05 0.00011156547407153994 0.0 0.0 0.0 0.0
6.05582286 0.0 0.0 1.8582690245239064e-05 0.00011511445336509496 0.0 0.0 0.0 0.0
6.05584286 0.0 0.0 4.108289431314915e-06 0.00012149782560300082 0.0 0.0 0.0 0.0
6.05586286 0.0 0.0 1.7631540686124936e-05 0.00011137885303469375 0.0 0.0 0.0 0.0
6.0558828600000005 0.0 0.0 1.681358480709605e-05 9.713174222270027e-05 0.0 0.0 0.0 0.0
6.055902860000001 0.0 0.0 4.6948829549364746e-05 0.00010984783875755966 0.0 0.0 0.0 0.0
6.055922860000001 0.0 0.0 3.0361903554876335e-05 0.00011741573689505458 0.0 0.0 0.0 0.0
6.05594286 0.0 0.0 1.0413850759505294e-05 0.00011478025407996029 0.0 0.0 0.0 0.0
6.05596286 0.0 0.0 3.4842447348637506e-05 0.0001070380603778176 0.0 0.0 0.0 0.0
6.05598286 0.0 0.0 2.5806150006246753e-05 0.00010443650535307825 0.0 0.0 0.0 0.0
6.05600286 0.0 0.0 4.177358641754836e-05 0.00011724267096724361 0.0 0.0 0.0 0.0
6.056022860000001 0.0 0.0 2.0712737750727683e-05 9.53600974753499e-05 0.0 0.0 0.0 0.0
6.056042860000001 0.0 0.0 1.7398631825926714e-05 0.0001178890306618996 0.0 0.0 0.0 0.0
6.05606286 0.0 0.0 2.299425432283897e-05 0.00011548666225280613 0.0 0.0 0.0 0.0
6.05608286 0.0 0.0 3.902158641722053e-05 0.00010044281225418672 0.0 0.0 0.0 0.0
6.05610286 0.0 0.0 3.809911504504271e-05 0.00011032167094526812 0.0 0.0 0.0 0.0
6.05612286 0.0 0.0 4.336450365372002e-05 0.00012013204104732722 0.0 0.0 0.0 0.0
6.0561428600000005 0.0 0.0 4.4421023631002754e-05 0.00010542110976530239 0.0 0.0 0.0 0.0
6.056162860000001 0.0 0.0 4.971665475750342e-05 0.00010303741146344692 0.0 0.0 0.0 0.0
6.056182860000001 0.0 0.0 3.2623127481201664e-05 9.497500286670402e-05 0.0 0.0 0.0 0.0
6.05620286 0.0 0.0 4.740003714687191e-05 0.0001188639216707088 0.0 0.0 0.0 0.0
6.05622286 0.0 0.0 4.2003717680927366e-05 0.00011142698349431157 0.0 0.0 0.0 0.0
6.05624286 0.0 0.0 3.9859613025328144e-05 0.00010936659964499995 0.0 0.0 0.0 0.0
6.05626286 0.0 0.0 2.7353056793799624e-05 0.00012567421072162688 0.0 0.0 0.0 0.0
6.0562828600000005 0.0 0.0 6.034193211235106e-05 9.67075684457086e-05 0.0 0.0 0.0 0.0
6.056302860000001 0.0 0.0 3.857156843878329e-05 0.00010454869334353134 0.0 0.0 0.0 0.0
6.056322860000001 0.0 0.0 4.9336926167597994e-05 8.577493281336501e-05 0.0 0.0 0.0 0.0
6.05634286 0.0 0.0 3.546422522049397e-05 0.00010372293036198243 0.0 0.0 0.0 0.0
6.05636286 0.0 0.0 4.905691457679495e-05 9.407103789271787e-05 0.0 0.0 0.0 0.0
6.05638286 0.0 0.0 4.5200184104032815e-05 0.00011154092499054968 0.0 0.0 0.0 0.0
6.05640286 0.0 0.0 4.621832704287954e-05 0.00011405746772652492 0.0 0.0 0.0 0.0
6.0564228600000005 0.0 0.0 3.151413693558425e-05 0.00011370316497050226 0.0 0.0 0.0 0.0
6.056442860000001 0.0 0.0 5.375836917664856e-05 9.922267781803384e-05 0.0 0.0 0.0 0.0
6.056462860000001 0.0 0.0 4.894235826213844e-05 0.0001012000793707557 0.0 0.0 0.0 0.0
6.05648286 0.0 0.0 3.746676156879403e-05 0.00010079655476147309 0.0 0.0 0.0 0.0
6.05650286 0.0 0.0 5.660335591528565e-05 0.0001008850013022311 0.0 0.0 0.0 0.0
6.05652286 0.0 0.0 6.571223639184609e-05 0.00010002817725762725 0.0 0.0 0.0 0.0
6.05654286 0.0 0.0 6.199043855303898e-05 9.906438936013728e-05 0.0 0.0 0.0 0.0
6.0565628600000005 0.0 0.0 6.005446266499348e-05 9.248741116607562e-05 0.0 0.0 0.0 0.0
6.056582860000001 0.0 0.0 6.591608689632267e-05 0.00010620920511428267 0.0 0.0 0.0 0.0
6.056602860000001 0.0 0.0 6.450916407629848e-05 9.282133396482095e-05 0.0 0.0 0.0 0.0
6.05662286 0.0 0.0 5.0307626224821433e-05 9.853504889179021e-05 0.0 0.0 0.0 0.0
6.05664286 0.0 0.0 4.95152453368064e-05 9.761833644006401e-05 0.0 0.0 0.0 0.0
6.05666286 0.0 0.0 5.628562212223187e-05 9.746973955770954e-05 0.0 0.0 0.0 0.0
6.0566828600000004 0.0 0.0 5.893395791645162e-05 0.00010988191934302449 0.0 0.0 0.0 0.0
6.056702860000001 0.0 0.0 6.79900695104152e-05 8.993261872092262e-05 0.0 0.0 0.0 0.0
6.056722860000001 0.0 0.0 7.166471186792478e-05 9.460579894948751e-05 0.0 0.0 0.0 0.0
6.05674286 0.0 0.0 6.854288221802562e-05 9.768921154318377e-05 0.0 0.0 0.0 0.0
6.05676286 0.0 0.0 6.583442882401869e-05 9.982760821003467e-05 0.0 0.0 0.0 0.0
6.05678286 0.0 0.0 7.721463771304116e-05 0.00010618168744258583 0.0 0.0 0.0 0.0
6.05680286 0.0 0.0 6.995561125222594e-05 0.00010921927605522797 0.0 0.0 0.0 0.0
6.0568228600000005 0.0 0.0 5.830607915413566e-05 9.776779916137457e-05 0.0 0.0 0.0 0.0
6.056842860000001 0.0 0.0 8.345511741936207e-05 8.591808000346646e-05 0.0 0.0 0.0 0.0
6.056862860000001 0.0 0.0 7.252924115164205e-05 9.100333409151062e-05 0.0 0.0 0.0 0.0
6.05688286 0.0 0.0 9.56813310040161e-05 7.750581426080316e-05 0.0 0.0 0.0 0.0
6.05690286 0.0 0.0 7.931362779345363e-05 0.00011593539966270328 0.0 0.0 0.0 0.0
6.05692286 0.0 0.0 0.00011054169590352103 0.00011033337068511173 0.0 0.0 0.0 0.0
6.05694286 0.0 0.0 8.392809104407206e-05 9.59319804678671e-05 0.0 0.0 0.0 0.0
6.0569628600000005 0.0 0.0 7.847834785934538e-05 7.97388784121722e-05 0.0 0.0 0.0 0.0
6.056982860000001 0.0 0.0 9.329621389042586e-05 8.140222780639306e-05 0.0 0.0 0.0 0.0
6.057002860000001 0.0 0.0 5.393875471781939e-05 9.386597957927734e-05 0.0 0.0 0.0 0.0
6.05702286 0.0 0.0 8.730531408218667e-05 8.287959644803777e-05 0.0 0.0 0.0 0.0
6.05704286 0.0 0.0 6.716565985698253e-05 8.45657559693791e-05 0.0 0.0 0.0 0.0
6.05706286 0.0 0.0 9.135990694630891e-05 9.01020976016298e-05 0.0 0.0 0.0 0.0
6.05708286 0.0 0.0 7.858691969886422e-05 9.697012137621641e-05 0.0 0.0 0.0 0.0
6.0571028600000005 0.0 0.0 0.00010396327706985176 8.262560004368424e-05 0.0 0.0 0.0 0.0
6.057122860000001 0.0 0.0 6.71482557663694e-05 8.790531137492508e-05 0.0 0.0 0.0 0.0
6.057142860000001 0.0 0.0 8.351323049282655e-05 9.257494821213186e-05 0.0 0.0 0.0 0.0
6.05716286 0.0 0.0 8.380828512599692e-05 8.008045551832765e-05 0.0 0.0 0.0 0.0
6.05718286 0.0 0.0 8.885583520168439e-05 7.605525752296671e-05 0.0 0.0 0.0 0.0
6.05720286 0.0 0.0 8.104791777441278e-05 8.314735168823972e-05 0.0 0.0 0.0 0.0
6.05722286 0.0 0.0 8.676949801156297e-05 7.00612145010382e-05 0.0 0.0 0.0 0.0
6.057242860000001 0.0 0.0 9.277977369492874e-05 7.493628800148144e-05 0.0 0.0 0.0 0.0
6.057262860000001 0.0 0.0 9.452206722926348e-05 6.65925836074166e-05 0.0 0.0 0.0 0.0
6.05728286 0.0 0.0 9.583235078025609e-05 8.175514813046902e-05 0.0 0.0 0.0 0.0
6.05730286 0.0 0.0 8.445799903711304e-05 7.632638880750164e-05 0.0 0.0 0.0 0.0
6.05732286 0.0 0.0 9.21464161365293e-05 8.291524136438966e-05 0.0 0.0 0.0 0.0
6.05734286 0.0 0.0 9.39712772378698e-05 6.974770803935826e-05 0.0 0.0 0.0 0.0
6.0573628600000005 0.0 0.0 0.00012597670138347894 6.820027192588896e-05 0.0 0.0 0.0 0.0
6.057382860000001 0.0 0.0 9.343327110400423e-05 7.817560253897682e-05 0.0 0.0 0.0 0.0
6.057402860000001 0.0 0.0 8.429538866039366e-05 7.854560681153089e-05 0.0 0.0 0.0 0.0
6.05742286 0.0 0.0 9.42596816457808e-05 7.326198101509362e-05 0.0 0.0 0.0 0.0
6.05744286 0.0 0.0 0.00010224694415228441 8.190240623662248e-05 0.0 0.0 0.0 0.0
6.05746286 0.0 0.0 0.00011082037963205948 6.949501403141767e-05 0.0 0.0 0.0 0.0
6.05748286 0.0 0.0 9.738727385411039e-05 6.905458576511592e-05 0.0 0.0 0.0 0.0
6.0575028600000005 0.0 0.0 0.00011563603766262531 5.207271533436142e-05 0.0 0.0 0.0 0.0
6.057522860000001 0.0 0.0 0.00010014817235060036 9.157572640106082e-05 0.0 0.0 0.0 0.0
6.057542860000001 0.0 0.0 9.57435549935326e-05 7.36204965505749e-05 0.0 0.0 0.0 0.0
6.05756286 0.0 0.0 9.650952415540814e-05 5.36301959073171e-05 0.0 0.0 0.0 0.0
6.05758286 0.0 0.0 0.00010498299525352195 6.771221524104476e-05 0.0 0.0 0.0 0.0
6.05760286 0.0 0.0 8.719292964087799e-05 6.573039718205109e-05 0.0 0.0 0.0 0.0
6.05762286 0.0 0.0 0.0001002436110866256 6.084235792513937e-05 0.0 0.0 0.0 0.0
6.0576428600000005 0.0 0.0 0.00011314706353005022 6.293047772487625e-05 0.0 0.0 0.0 0.0
6.057662860000001 0.0 0.0 0.00010897040920099244 6.207351543707773e-05 0.0 0.0 0.0 0.0
6.057682860000001 0.0 0.0 8.951115160016343e-05 8.223993791034445e-05 0.0 0.0 0.0 0.0
6.05770286 0.0 0.0 9.490101365372539e-05 5.626211714115925e-05 0.0 0.0 0.0 0.0
6.05772286 0.0 0.0 0.00011514127982081845 5.000263990950771e-05 0.0 0.0 0.0 0.0
6.05774286 0.0 0.0 0.00010196153016295284 5.552099901251495e-05 0.0 0.0 0.0 0.0
6.05776286 0.0 0.0 0.00011114894732600078 3.651774022728205e-05 0.0 0.0 0.0 0.0
6.0577828600000005 0.0 0.0 0.00011746513337129727 5.08520461153239e-05 0.0 0.0 0.0 0.0
6.057802860000001 0.0 0.0 0.00010757915151771158 5.0798265874618664e-05 0.0 0.0 0.0 0.0
6.057822860000001 0.0 0.0 0.00010521097283344716 4.2786006815731525e-05 0.0 0.0 0.0 0.0
6.05784286 0.0 0.0 0.00011136710236314684 4.2967651097569615e-05 0.0 0.0 0.0 0.0
6.05786286 0.0 0.0 0.0001200656479340978 5.003733531339094e-05 0.0 0.0 0.0 0.0
6.05788286 0.0 0.0 0.00011364566307747737 6.550483522005379e-05 0.0 0.0 0.0 0.0
6.0579028600000004 0.0 0.0 0.00012853278894908726 4.278223423170857e-05 0.0 0.0 0.0 0.0
6.057922860000001 0.0 0.0 0.00011125187302241102 4.1011193388840184e-05 0.0 0.0 0.0 0.0
6.057942860000001 0.0 0.0 0.00011159985297126696 4.699559576692991e-05 0.0 0.0 0.0 0.0
6.05796286 0.0 0.0 0.00013580724771600217 2.952842623926699e-05 0.0 0.0 0.0 0.0
6.05798286 0.0 0.0 0.00012025886098854244 5.785717075923458e-05 0.0 0.0 0.0 0.0
6.05800286 0.0 0.0 0.00011332966096233577 5.4580876167165115e-05 0.0 0.0 0.0 0.0
6.05802286 0.0 0.0 0.00010794268746394664 4.929013812215999e-05 0.0 0.0 0.0 0.0
6.0580428600000005 0.0 0.0 0.00013862221385352314 3.5350301914149895e-05 0.0 0.0 0.0 0.0
6.058062860000001 0.0 0.0 0.00010583578841760755 3.496522185741924e-05 0.0 0.0 0.0 0.0
6.058082860000001 0.0 0.0 0.00012118016456952319 4.3330801418051124e-05 0.0 0.0 0.0 0.0
6.05810286 0.0 0.0 0.00012122518819523975 4.481162613956258e-05 0.0 0.0 0.0 0.0
6.05812286 0.0 0.0 0.00011892339534824714 4.8063444410217926e-05 0.0 0.0 0.0 0.0
6.05814286 0.0 0.0 0.0001156437283498235 6.697775097563863e-05 0.0 0.0 0.0 0.0
6.05816286 0.0 0.0 0.0001294787653023377 3.4132037399103865e-05 0.0 0.0 0.0 0.0
6.0581828600000005 0.0 0.0 0.00012196668103570119 3.622005897341296e-05 0.0 0.0 0.0 0.0
6.058202860000001 0.0 0.0 0.000125642676721327 4.2276678868802264e-05 0.0 0.0 0.0 0.0
6.058222860000001 0.0 0.0 0.00010491270950296894 3.4650973248062655e-05 0.0 0.0 0.0 0.0
6.05824286 0.0 0.0 0.0001269465865334496 3.8678637793054804e-05 0.0 0.0 0.0 0.0
6.05826286 0.0 0.0 0.00011104566510766745 3.0350018278113566e-05 0.0 0.0 0.0 0.0
6.05828286 0.0 0.0 0.00011464759154478088 3.1766070605954155e-05 0.0 0.0 0.0 0.0
6.05830286 0.0 0.0 0.00011883224215125665 3.32074414473027e-05 0.0 0.0 0.0 0.0
6.0583228600000005 0.0 0.0 0.0001137623839895241 4.21586082666181e-05 0.0 0.0 0.0 0.0
6.058342860000001 0.0 0.0 0.00015068512584548444 1.4834085050097201e-05 0.0 0.0 0.0 0.0
6.058362860000001 0.0 0.0 0.00014298234600573778 3.580024349503219e-05 0.0 0.0 0.0 0.0
6.05838286 0.0 0.0 0.0001335764827672392 2.672878144949209e-05 0.0 0.0 0.0 0.0
6.05840286 0.0 0.0 0.00011482992704259232 2.0455096091609448e-05 0.0 0.0 0.0 0.0
6.05842286 0.0 0.0 0.000130393571453169 1.1823997738247272e-05 0.0 0.0 0.0 0.0
6.05844286 0.0 0.0 0.000129280291730538 1.8231106878374703e-05 0.0 0.0 0.0 0.0
6.058462860000001 0.0 0.0 0.00013494552695192397 2.2757783881388605e-05 0.0 0.0 0.0 0.0
6.058482860000001 0.0 0.0 0.00011217836436117068 4.263950540916994e-05 0.0 0.0 0.0 0.0
6.05850286 0.0 0.0 0.00013572858006227762 1.3897076314606238e-05 0.0 0.0 0.0 0.0
6.05852286 0.0 0.0 0.0001458002661820501 2.188788857893087e-05 0.0 0.0 0.0 0.0
6.05854286 0.0 0.0 0.00013651802146341652 3.0384873753064312e-05 0.0 0.0 0.0 0.0
6.05856286 0.0 0.0 0.00012993857671972364 6.40329801626649e-07 0.0 0.0 0.0 0.0
6.0585828600000005 0.0 0.0 0.00011337032628944144 6.797542937420076e-06 0.0 0.0 0.0 0.0
6.058602860000001 0.0 0.0 0.00012918120773974806 3.702398544191965e-06 0.0 0.0 0.0 0.0
6.058622860000001 0.0 0.0 0.00010933801968349144 1.0592701073619537e-05 0.0 0.0 0.0 0.0
6.05864286 0.0 0.0 0.00011529822222655639 8.52537323225988e-06 0.0 0.0 0.0 0.0
6.05866286 0.0 0.0 0.0001366245123790577 5.1458710004226305e-06 0.0 0.0 0.0 0.0
6.05868286 0.0 0.0 0.000148675317177549 2.0564806618494913e-05 0.0 0.0 0.0 0.0
6.05870286 0.0 0.0 0.0001302757882513106 4.594357505993685e-06 0.0 0.0 0.0 0.0
6.0587228600000005 0.0 0.0 0.0001298882270930335 1.0437140190333594e-05 0.0 0.0 0.0 0.0
6.058742860000001 0.0 0.0 0.00013588040019385517 1.7255068769372883e-06 0.0 0.0 0.0 0.0
6.058762860000001 0.0 0.0 0.00013284955639392138 -1.4041087524674367e-05 0.0 0.0 0.0 0.0
6.05878286 0.0 0.0 0.0001373376726405695 4.213559350318974e-06 0.0 0.0 0.0 0.0
6.05880286 0.0 0.0 0.0001377128210151568 1.7295581073994981e-06 0.0 0.0 0.0 0.0
6.05882286 0.0 0.0 0.00012737260840367526 4.953804364049574e-06 0.0 0.0 0.0 0.0
6.05884286 0.0 0.0 0.00012686516856774688 -2.7665253128361655e-06 0.0 0.0 0.0 0.0
6.0588628600000005 0.0 0.0 0.00012993795098736882 5.618149316433119e-06 0.0 0.0 0.0 0.0
6.058882860000001 0.0 0.0 0.00013441345072351396 -1.8637847460922785e-05 0.0 0.0 0.0 0.0
6.058902860000001 0.0 0.0 0.00015012919902801514 1.4165757420414593e-06 0.0 0.0 0.0 0.0
6.05892286 0.0 0.0 0.00012536311987787485 2.8322865546215326e-06 0.0 0.0 0.0 0.0
6.05894286 0.0 0.0 0.0001436314487364143 -1.352385152131319e-05 0.0 0.0 0.0 0.0
6.05896286 0.0 0.0 0.00012940938177052885 4.056997568113729e-06 0.0 0.0 0.0 0.0
6.05898286 0.0 0.0 0.00014286112855188549 -1.8519833247410133e-05 0.0 0.0 0.0 0.0
6.0590028600000005 0.0 0.0 0.00014563216245733202 -9.661309377406724e-06 0.0 0.0 0.0 0.0
6.059022860000001 0.0 0.0 0.00013185538409743458 7.071788786561228e-06 0.0 0.0 0.0 0.0
6.059042860000001 0.0 0.0 0.00014317786553874612 -2.0933603082085028e-05 0.0 0.0 0.0 0.0
6.05906286 0.0 0.0 0.00012054333637934178 -2.345556094951462e-05 0.0 0.0 0.0 0.0
6.05908286 0.0 0.0 0.00012030802463414147 -1.1786921277234796e-05 0.0 0.0 0.0 0.0
6.05910286 0.0 0.0 0.00014450695016421378 -2.2423011614591815e-05 0.0 0.0 0.0 0.0
6.05912286 0.0 0.0 0.00012292040628381073 -2.6711028112913482e-05 0.0 0.0 0.0 0.0
6.059142860000001 0.0 0.0 0.00014947164163459092 -3.5847609979100525e-05 0.0 0.0 0.0 0.0
6.059162860000001 0.0 0.0 0.0001158254817710258 -4.543048271443695e-05 0.0 0.0 0.0 0.0
6.05918286 0.0 0.0 0.00013949608546681702 -2.331490395590663e-05 0.0 0.0 0.0 0.0
6.05920286 0.0 0.0 0.00013926185783930123 -1.9336561308591627e-05 0.0 0.0 0.0 0.0
6.05922286 0.0 0.0 0.00010990506416419521 -4.5588523789774626e-05 0.0 0.0 0.0 0.0
6.05924286 0.0 0.0 0.00014414834731724113 -3.444283356657252e-05 0.0 0.0 0.0 0.0
6.0592628600000005 0.0 0.0 0.00014076463412493467 -2.6002220693044364e-05 0.0 0.0 0.0 0.0
6.059282860000001 0.0 0.0 0.00013247020251583308 -2.889408824557904e-05 0.0 0.0 0.0 0.0
6.059302860000001 0.0 0.0 0.00013058296462986618 -2.3924540073494427e-05 0.0 0.0 0.0 0.0
6.05932286 0.0 0.0 0.00015420312411151826 -1.6163618056452833e-05 0.0 0.0 0.0 0.0
6.05934286 0.0 0.0 0.0001183945860248059 -5.510989285539836e-05 0.0 0.0 0.0 0.0
6.05936286 0.0 0.0 0.0001236479583894834 -4.8831112508196384e-05 0.0 0.0 0.0 0.0
6.05938286 0.0 0.0 0.00012550032988656312 -2.8824144465033896e-05 0.0 0.0 0.0 0.0
6.0594028600000005 0.0 0.0 0.00012632485595531762 -4.130453817197122e-05 0.0 0.0 0.0 0.0
6.059422860000001 0.0 0.0 0.00013108148414175957 -4.596872167894617e-05 0.0 0.0 0.0 0.0
6.059442860000001 0.0 0.0 0.00011510722106322646 -3.9565275073982775e-05 0.0 0.0 0.0 0.0
6.05946286 0.0 0.0 0.00012132147821830586 -5.198101280257106e-05 0.0 0.0 0.0 0.0
6.05948286 0.0 0.0 0.00014181880396790802 -2.9229609936010092e-05 0.0 0.0 0.0 0.0
6.05950286 0.0 0.0 0.00011735703446902335 -2.725298509176355e-05 0.0 0.0 0.0 0.0
6.05952286 0.0 0.0 0.00012856647663284093 -4.4865653762826696e-05 0.0 0.0 0.0 0.0
6.0595428600000005 0.0 0.0 0.00012915809929836541 -4.355002965894528e-05 0.0 0.0 0.0 0.0
6.059562860000001 0.0 0.0 0.00012281032104510814 -4.015796730527654e-05 0.0 0.0 0.0 0.0
6.059582860000001 0.0 0.0 0.00014023645780980587 -4.848506796406582e-05 0.0 0.0 0.0 0.0
6.05960286 0.0 0.0 0.00014320656191557646 -4.639792314264923e-05 0.0 0.0 0.0 0.0
6.05962286 0.0 0.0 0.0001177311860374175 -4.3956388253718615e-05 0.0 0.0 0.0 0.0
6.05964286 0.0 0.0 0.00011307685781503096 -6.838851550128311e-05 0.0 0.0 0.0 0.0
6.05966286 0.0 0.0 0.00014743882638867944 -4.175279536866583e-05 0.0 0.0 0.0 0.0
6.059682860000001 0.0 0.0 0.00011679368617478758 -4.47107340733055e-05 0.0 0.0 0.0 0.0
6.059702860000001 0.0 0.0 0.0001483054511481896 -5.1341794460313395e-05 0.0 0.0 0.0 0.0
6.059722860000001 0.0 0.0 0.00011815023754024878 -6.236867920961231e-05 0.0 0.0 0.0 0.0
6.05974286 0.0 0.0 0.0001225801679538563 -7.35735593480058e-05 0.0 0.0 0.0 0.0
6.05976286 0.0 0.0 0.00014614425890613347 -5.465906360768713e-05 0.0 0.0 0.0 0.0
6.05978286 0.0 0.0 0.00011745622759917751 -6.903495523147285e-05 0.0 0.0 0.0 0.0
6.0598028600000005 0.0 0.0 0.00012999793398194015 -5.419980880105868e-05 0.0 0.0 0.0 0.0
6.059822860000001 0.0 0.0 0.00011162787268403918 -7.872400601627305e-05 0.0 0.0 0.0 0.0
6.059842860000001 0.0 0.0 0.00011379910574760288 -5.872774272575043e-05 0.0 0.0 0.0 0.0
6.05986286 0.0 0.0 0.00012258767674211413 -8.449145389022306e-05 0.0 0.0 0.0 0.0
6.05988286 0.0 0.0 0.00012528026127256453 -7.227090100059286e-05 0.0 0.0 0.0 0.0
6.05990286 0.0 0.0 0.00010823634511325508 -6.074269185774028e-05 0.0 0.0 0.0 0.0
6.05992286 0.0 0.0 0.00011329763219691813 -6.518643203889951e-05 0.0 0.0 0.0 0.0
6.0599428600000005 0.0 0.0 0.00011467954755062237 -6.807527097407728e-05 0.0 0.0 0.0 0.0
6.059962860000001 0.0 0.0 0.00010761134763015434 -7.478910265490413e-05 0.0 0.0 0.0 0.0
6.059982860000001 0.0 0.0 0.000126112878206186 -6.438810669351369e-05 0.0 0.0 0.0 0.0
6.06000286 0.0 0.0 0.00011708253441611305 -8.517512469552457e-05 0.0 0.0 0.0 0.0
6.06002286 0.0 0.0 0.00012808608880732208 -7.943886885186657e-05 0.0 0.0 0.0 0.0
6.06004286 0.0 0.0 0.00011953123612329364 -8.284210343845189e-05 0.0 0.0 0.0 0.0
6.06006286 0.0 0.0 0.00010446458327351138 -6.303677946561947e-05 0.0 0.0 0.0 0.0
6.0600828600000005 0.0 0.0 0.00012130018149036914 -8.960016566561535e-05 0.0 0.0 0.0 0.0
6.060102860000001 0.0 0.0 9.877898264676332e-05 -9.426557517144829e-05 0.0 0.0 0.0 0.0
6.060122860000001 0.0 0.0 9.583515929989517e-05 -8.623402391094714e-05 0.0 0.0 0.0 0.0
6.06014286 0.0 0.0 0.00010467788524692878 -7.710572390351444e-05 0.0 0.0 0.0 0.0
6.06016286 0.0 0.0 0.00012790043547283858 -8.945906301960349e-05 0.0 0.0 0.0 0.0
6.06018286 0.0 0.0 0.00012742908438667655 -9.859370766207576e-05 0.0 0.0 0.0 0.0
6.06020286 0.0 0.0 0.00011562668805709109 -8.438490476692095e-05 0.0 0.0 0.0 0.0
6.0602228600000005 0.0 0.0 0.0001097849672078155 -8.097818499663845e-05 0.0 0.0 0.0 0.0
6.060242860000001 0.0 0.0 9.788650640984997e-05 -7.969058060552925e-05 0.0 0.0 0.0 0.0
6.060262860000001 0.0 0.0 0.00011710929538821802 -9.146035881713033e-05 0.0 0.0 0.0 0.0
6.06028286 0.0 0.0 0.00010365706839365885 -7.875169103499502e-05 0.0 0.0 0.0 0.0
6.06030286 0.0 0.0 9.31454633246176e-05 -8.759446791373193e-05 0.0 0.0 0.0 0.0
6.06032286 0.0 0.0 0.00010159055818803608 -0.00011036470823455602 0.0 0.0 0.0 0.0
6.06034286 0.0 0.0 0.00011371636355761439 -0.0001093731916625984 0.0 0.0 0.0 0.0
6.060362860000001 0.0 0.0 0.00012020509893773124 -9.865528409136459e-05 0.0 0.0 0.0 0.0
6.060382860000001 0.0 0.0 0.00011385454126866534 -8.288006210932508e-05 0.0 0.0 0.0 0.0
6.06040286 0.0 0.0 0.00010631592886056751 -0.00010528168058954179 0.0 0.0 0.0 0.0
6.06042286 0.0 0.0 0.00010794853733386844 -0.00010261677380185574 0.0 0.0 0.0 0.0
6.06044286 0.0 0.0 0.00011257598816882819 -0.00010894078150158748 0.0 0.0 0.0 0.0
6.06046286 0.0 0.0 0.00010265170567436144 -0.0001091843587346375 0.0 0.0 0.0 0.0
6.0604828600000005 0.0 0.0 0.00011495911894598976 -0.0001073246166924946 0.0 0.0 0.0 0.0
6.060502860000001 0.0 0.0 0.00010188067244598642 -9.976921865018085e-05 0.0 0.0 0.0 0.0
6.060522860000001 0.0 0.0 0.0001105573246604763 -0.00010913687583524734 0.0 0.0 0.0 0.0
6.06054286 0.0 0.0 9.532258263789117e-05 -0.00011940123658860102 0.0 0.0 0.0 0.0
