! Created with skrf (http://scikit-rf.org).
# GHz S RI R 50.0
!freq ReS11 ImS11 ReS21 ImS21 ReS12 ImS12 ReS22 ImS22
6.05580286 0.0 0.0 0.02049773558974266 0.1115654781460762 0.0 0.0 0.0 0.0
6.05582286 0.0 0.0 0.018582690507173538 0.11511445045471191 0.0 0.0 0.0 0.0
6.05584286 0.0 0.0 0.004108289256691933 0.12149782478809357 0.0 0.0 0.0 0.0
6.05586286 0.0 0.0 0.017631541937589645 0.11137885600328445 0.0 0.0 0.0 0.0
6.05588286 0.0 0.0 0.01681358553469181 0.09713173657655716 0.0 0.0 0.0 0.0
6.05590286 0.0 0.0 0.04694882780313492 0.10984783619642258 0.0 0.0 0.0 0.0
6.05592286 0.0 0.0 0.030361901968717575 0.11741573363542557 0.0 0.0 0.0 0.0
6.05594286 0.0 0.0 0.010413850657641888 0.1147802546620369 0.0 0.0 0.0 0.0
6.05596286 0.0 0.0 0.03484244644641876 0.10703805834054947 0.0 0.0 0.0 0.0
6.05598286 0.0 0.0 0.02580614946782589 0.10443650931119919 0.0 0.0 0.0 0.0
6.05600286 0.0 0.0 0.041773587465286255 0.11724266409873962 0.0 0.0 0.0 0.0
6.05602286 0.0 0.0 0.02071273885667324 0.09536009281873703 0.0 0.0 0.0 0.0
6.05604286 0.0 0.0 0.017398633062839508 0.11788903176784515 0.0 0.0 0.0 0.0
6.05606286 0.0 0.0 0.022994255647063255 0.11548665910959244 0.0 0.0 0.0 0.0
6.05608286 0.0 0.0 0.03902158513665199 0.10044281929731369 0.0 0.0 0.0 0.0
6.05610286 0.0 0.0 0.03809911385178566 0.11032167077064514 0.0 0.0 0.0 0.0
6.05612286 0.0 0.0 0.0433645024895668 0.12013204395771027 0.0 0.0 0.0 0.0
6.05614286 0.0 0.0 0.04442102462053299 0.10542111098766327 0.0 0.0 0.0 0.0
6.05616286 0.0 0.0 0.04971665143966675 0.10303740948438644 0.0 0.0 0.0 0.0
6.05618286 0.0 0.0 0.03262312710285187 0.09497500211000443 0.0 0.0 0.0 0.0
6.05620286 0.0 0.0 0.047400034964084625 0.11886391788721085 0.0 0.0 0.0 0.0
6.05622286 0.0 0.0 0.04200372099876404 0.11142698675394058 0.0 0.0 0.0 0.0
6.05624286 0.0 0.0 0.03985961526632309 0.10936659574508667 0.0 0.0 0.0 0.0
6.05626286 0.0 0.0 0.027353055775165558 0.12567421793937683 0.0 0.0 0.0 0.0
6.05628286 0.0 0.0 0.060341931879520416 0.09670756757259369 0.0 0.0 0.0 0.0
6.05630286 0.0 0.0 0.038571566343307495 0.10454869270324707 0.0 0.0 0.0 0.0
6.05632286 0.0 0.0 0.04933692514896393 0.08577493578195572 0.0 0.0 0.0 0.0
6.05634286 0.0 0.0 0.035464223474264145 0.10372292995452881 0.0 0.0 0.0 0.0
6.05636286 0.0 0.0 0.04905691370368004 0.09407103806734085 0.0 0.0 0.0 0.0
6.05638286 0.0 0.0 0.04520018398761749 0.11154092848300934 0.0 0.0 0.0 0.0
6.05640286 0.0 0.0 0.046218328177928925 0.11405747383832932 0.0 0.0 0.0 0.0
6.05642286 0.0 0.0 0.031514137983322144 0.1137031614780426 0.0 0.0 0.0 0.0
6.05644286 0.0 0.0 0.053758371621370316 0.09922267496585846 0.0 0.0 0.0 0.0
6.05646286 0.0 0.0 0.048942357301712036 0.10120008140802383 0.0 0.0 0.0 0.0
6.05648286 0.0 0.0 0.037466760724782944 0.10079655051231384 0.0 0.0 0.0 0.0
6.05650286 0.0 0.0 0.05660335719585419 0.10088499635457993 0.0 0.0 0.0 0.0
6.05652286 0.0 0.0 0.06571223586797714 0.10002817958593369 0.0 0.0 0.0 0.0
6.05654286 0.0 0.0 0.06199043616652489 0.09906439483165741 0.0 0.0 0.0 0.0
6.05656286 0.0 0.0 0.060054462403059006 0.0924874097108841 0.0 0.0 0.0 0.0
6.05658286 0.0 0.0 0.06591608375310898 0.10620920360088348 0.0 0.0 0.0 0.0
6.05660286 0.0 0.0 0.06450916081666946 0.09282132983207703 0.0 0.0 0.0 0.0
6.05662286 0.0 0.0 0.05030762404203415 0.09853505343198776 0.0 0.0 0.0 0.0
6.05664286 0.0 0.0 0.0495152473449707 0.09761833399534225 0.0 0.0 0.0 0.0
6.05666286 0.0 0.0 0.05628561973571777 0.0974697396159172 0.0 0.0 0.0 0.0
6.05668286 0.0 0.0 0.058933958411216736 0.1098819151520729 0.0 0.0 0.0 0.0
6.05670286 0.0 0.0 0.06799006462097168 0.08993261307477951 0.0 0.0 0.0 0.0
6.05672286 0.0 0.0 0.0716647133231163 0.09460580348968506 0.0 0.0 0.0 0.0
6.05674286 0.0 0.0 0.06854288280010223 0.09768921136856079 0.0 0.0 0.0 0.0
6.05676286 0.0 0.0 0.06583443284034729 0.0998276099562645 0.0 0.0 0.0 0.0
6.05678286 0.0 0.0 0.07721463590860367 0.10618168860673904 0.0 0.0 0.0 0.0
6.05680286 0.0 0.0 0.06995560973882675 0.10921928286552429 0.0 0.0 0.0 0.0
6.05682286 0.0 0.0 0.058306075632572174 0.09776780009269714 0.0 0.0 0.0 0.0
6.05684286 0.0 0.0 0.08345511555671692 0.08591807633638382 0.0 0.0 0.0 0.0
6.05686286 0.0 0.0 0.07252924144268036 0.09100333601236343 0.0 0.0 0.0 0.0
6.05688286 0.0 0.0 0.095681332051754 0.07750581204891205 0.0 0.0 0.0 0.0
6.05690286 0.0 0.0 0.07931362837553024 0.11593540012836456 0.0 0.0 0.0 0.0
6.05692286 0.0 0.0 0.1105417013168335 0.11033336818218231 0.0 0.0 0.0 0.0
6.05694286 0.0 0.0 0.08392809331417084 0.09593197703361511 0.0 0.0 0.0 0.0
6.05696286 0.0 0.0 0.07847834378480911 0.07973888516426086 0.0 0.0 0.0 0.0
6.05698286 0.0 0.0 0.09329621493816376 0.08140222728252411 0.0 0.0 0.0 0.0
6.05700286 0.0 0.0 0.05393875390291214 0.09386598318815231 0.0 0.0 0.0 0.0
6.05702286 0.0 0.0 0.08730531483888626 0.08287959545850754 0.0 0.0 0.0 0.0
6.05704286 0.0 0.0 0.06716565787792206 0.08456575870513916 0.0 0.0 0.0 0.0
6.05706286 0.0 0.0 0.09135990589857101 0.09010209888219833 0.0 0.0 0.0 0.0
6.05708286 0.0 0.0 0.07858692109584808 0.09697011858224869 0.0 0.0 0.0 0.0
6.05710286 0.0 0.0 0.10396327823400497 0.08262559771537781 0.0 0.0 0.0 0.0
6.05712286 0.0 0.0 0.06714826077222824 0.08790531009435654 0.0 0.0 0.0 0.0
6.05714286 0.0 0.0 0.08351323008537292 0.09257494658231735 0.0 0.0 0.0 0.0
6.05716286 0.0 0.0 0.0838082879781723 0.08008045703172684 0.0 0.0 0.0 0.0
6.05718286 0.0 0.0 0.08885583281517029 0.07605525851249695 0.0 0.0 0.0 0.0
6.05720286 0.0 0.0 0.081047922372818 0.08314735442399979 0.0 0.0 0.0 0.0
6.05722286 0.0 0.0 0.08676949888467789 0.07006121426820755 0.0 0.0 0.0 0.0
6.05724286 0.0 0.0 0.09277977794408798 0.07493628561496735 0.0 0.0 0.0 0.0
6.05726286 0.0 0.0 0.09452206641435623 0.06659258157014847 0.0 0.0 0.0 0.0
6.05728286 0.0 0.0 0.09583235532045364 0.0817551538348198 0.0 0.0 0.0 0.0
6.05730286 0.0 0.0 0.08445800095796585 0.076326385140419 0.0 0.0 0.0 0.0
6.05732286 0.0 0.0 0.09214641153812408 0.08291523903608322 0.0 0.0 0.0 0.0
6.05734286 0.0 0.0 0.09397128224372864 0.06974770873785019 0.0 0.0 0.0 0.0
6.05736286 0.0 0.0 0.12597669661045074 0.06820026785135269 0.0 0.0 0.0 0.0
6.05738286 0.0 0.0 0.09343327581882477 0.0781756043434143 0.0 0.0 0.0 0.0
6.05740286 0.0 0.0 0.08429538458585739 0.07854560762643814 0.0 0.0 0.0 0.0
6.05742286 0.0 0.0 0.09425968676805496 0.07326198369264603 0.0 0.0 0.0 0.0
6.05744286 0.0 0.0 0.10224694758653641 0.0819024071097374 0.0 0.0 0.0 0.0
6.05746286 0.0 0.0 0.11082037538290024 0.06949500739574432 0.0 0.0 0.0 0.0
6.05748286 0.0 0.0 0.09738726913928986 0.06905458867549896 0.0 0.0 0.0 0.0
6.05750286 0.0 0.0 0.11563603579998016 0.05207271873950958 0.0 0.0 0.0 0.0
6.05752286 0.0 0.0 0.10014817118644714 0.0915757268667221 0.0 0.0 0.0 0.0
6.05754286 0.0 0.0 0.09574355185031891 0.0736204981803894 0.0 0.0 0.0 0.0
6.05756286 0.0 0.0 0.09650952368974686 0.053630195558071136 0.0 0.0 0.0 0.0
6.05758286 0.0 0.0 0.10498299449682236 0.0677122175693512 0.0 0.0 0.0 0.0
6.05760286 0.0 0.0 0.08719293028116226 0.06573039293289185 0.0 0.0 0.0 0.0
6.05762286 0.0 0.0 0.10024360567331314 0.0608423575758934 0.0 0.0 0.0 0.0
6.05764286 0.0 0.0 0.1131470650434494 0.06293047964572906 0.0 0.0 0.0 0.0
6.05766286 0.0 0.0 0.10897041112184525 0.062073513865470886 0.0 0.0 0.0 0.0
6.05768286 0.0 0.0 0.08951114863157272 0.08223994076251984 0.0 0.0 0.0 0.0
6.05770286 0.0 0.0 0.09490101039409637 0.05626211687922478 0.0 0.0 0.0 0.0
6.05772286 0.0 0.0 0.11514127999544144 0.05000263825058937 0.0 0.0 0.0 0.0
6.05774286 0.0 0.0 0.10196153074502945 0.05552099645137787 0.0 0.0 0.0 0.0
6.05776286 0.0 0.0 0.11114894598722458 0.03651773929595947 0.0 0.0 0.0 0.0
6.05778286 0.0 0.0 0.11746513843536377 0.05085204914212227 0.0 0.0 0.0 0.0
6.05780286 0.0 0.0 0.10757914930582047 0.050798267126083374 0.0 0.0 0.0 0.0
6.05782286 0.0 0.0 0.10521096736192703 0.04278600588440895 0.0 0.0 0.0 0.0
6.05784286 0.0 0.0 0.11136709898710251 0.042967651039361954 0.0 0.0 0.0 0.0
6.05786286 0.0 0.0 0.12006565183401108 0.050037335604429245 0.0 0.0 0.0 0.0
6.05788286 0.0 0.0 0.11364565789699554 0.06550483405590057 0.0 0.0 0.0 0.0
6.05790286 0.0 0.0 0.1285327821969986 0.04278223216533661 0.0 0.0 0.0 0.0
6.05792286 0.0 0.0 0.11125187575817108 0.04101119190454483 0.0 0.0 0.0 0.0
6.05794286 0.0 0.0 0.11159985512495041 0.04699559509754181 0.0 0.0 0.0 0.0
6.05796286 0.0 0.0 0.13580724596977234 0.029528426006436348 0.0 0.0 0.0 0.0
6.05798286 0.0 0.0 0.1202588602900505 0.057857170701026917 0.0 0.0 0.0 0.0
6.05800286 0.0 0.0 0.11332966387271881 0.05458087474107742 0.0 0.0 0.0 0.0
6.05802286 0.0 0.0 0.10794269293546677 0.049290139228105545 0.0 0.0 0.0 0.0
6.05804286 0.0 0.0 0.1386222094297409 0.03535030037164688 0.0 0.0 0.0 0.0
6.05806286 0.0 0.0 0.10583578795194626 0.03496522456407547 0.0 0.0 0.0 0.0
6.05808286 0.0 0.0 0.12118016928434372 0.04333079978823662 0.0 0.0 0.0 0.0
6.05810286 0.0 0.0 0.12122518569231033 0.04481162875890732 0.0 0.0 0.0 0.0
6.05812286 0.0 0.0 0.11892339587211609 0.04806344211101532 0.0 0.0 0.0 0.0
6.05814286 0.0 0.0 0.11564373224973679 0.06697775423526764 0.0 0.0 0.0 0.0
6.05816286 0.0 0.0 0.12947876751422882 0.034132037311792374 0.0 0.0 0.0 0.0
6.05818286 0.0 0.0 0.12196668237447739 0.03622005879878998 0.0 0.0 0.0 0.0
6.05820286 0.0 0.0 0.12564267218112946 0.04227667674422264 0.0 0.0 0.0 0.0
6.05822286 0.0 0.0 0.10491271317005157 0.03465097025036812 0.0 0.0 0.0 0.0
6.05824286 0.0 0.0 0.1269465833902359 0.03867863863706589 0.0 0.0 0.0 0.0
6.05826286 0.0 0.0 0.11104566603899002 0.03035001829266548 0.0 0.0 0.0 0.0
6.05828286 0.0 0.0 0.11464758962392807 0.03176606819033623 0.0 0.0 0.0 0.0
6.05830286 0.0 0.0 0.11883223801851273 0.03320744261145592 0.0 0.0 0.0 0.0
6.05832286 0.0 0.0 0.11376238614320755 0.04215861111879349 0.0 0.0 0.0 0.0
6.05834286 0.0 0.0 0.1506851315498352 0.0148340854793787 0.0 0.0 0.0 0.0
6.05836286 0.0 0.0 0.1429823487997055 0.03580024465918541 0.0 0.0 0.0 0.0
6.05838286 0.0 0.0 0.13357648253440857 0.026728780940175056 0.0 0.0 0.0 0.0
6.05840286 0.0 0.0 0.11482992768287659 0.020455095916986465 0.0 0.0 0.0 0.0
6.05842286 0.0 0.0 0.13039357960224152 0.01182399783283472 0.0 0.0 0.0 0.0
6.05844286 0.0 0.0 0.12928029894828796 0.01823110692203045 0.0 0.0 0.0 0.0
6.05846286 0.0 0.0 0.13494552671909332 0.02275778353214264 0.0 0.0 0.0 0.0
6.05848286 0.0 0.0 0.11217837035655975 0.04263950511813164 0.0 0.0 0.0 0.0
6.05850286 0.0 0.0 0.13572858273983002 0.013897077180445194 0.0 0.0 0.0 0.0
6.05852286 0.0 0.0 0.14580027759075165 0.02188788913190365 0.0 0.0 0.0 0.0
6.05854286 0.0 0.0 0.13651801645755768 0.03038487397134304 0.0 0.0 0.0 0.0
6.05856286 0.0 0.0 0.12993858754634857 0.0006403297884389758 0.0 0.0 0.0 0.0
6.05858286 0.0 0.0 0.11337032914161682 0.006797542795538902 0.0 0.0 0.0 0.0
6.05860286 0.0 0.0 0.12918120622634888 0.0037023986224085093 0.0 0.0 0.0 0.0
6.05862286 0.0 0.0 0.10933801531791687 0.01059270091354847 0.0 0.0 0.0 0.0
6.05864286 0.0 0.0 0.11529821902513504 0.008525373414158821 0.0 0.0 0.0 0.0
6.05866286 0.0 0.0 0.1366245150566101 0.005145871080458164 0.0 0.0 0.0 0.0
6.05868286 0.0 0.0 0.1486753225326538 0.020564807578921318 0.0 0.0 0.0 0.0
6.05870286 0.0 0.0 0.13027578592300415 0.004594357684254646 0.0 0.0 0.0 0.0
6.05872286 0.0 0.0 0.12988822162151337 0.010437140241265297 0.0 0.0 0.0 0.0
6.05874286 0.0 0.0 0.13588041067123413 0.0017255068523809314 0.0 0.0 0.0 0.0
6.05876286 0.0 0.0 0.1328495442867279 -0.014041087590157986 0.0 0.0 0.0 0.0
6.05878286 0.0 0.0 0.13733766973018646 0.004213559441268444 0.0 0.0 0.0 0.0
6.05880286 0.0 0.0 0.13771282136440277 0.0017295581055805087 0.0 0.0 0.0 0.0
6.05882286 0.0 0.0 0.127372607588768 0.004953803960233927 0.0 0.0 0.0 0.0
6.05884286 0.0 0.0 0.1268651783466339 -0.002766525372862816 0.0 0.0 0.0 0.0
6.05886286 0.0 0.0 0.12993794679641724 0.0056181494146585464 0.0 0.0 0.0 0.0
6.05888286 0.0 0.0 0.1344134509563446 -0.018637847155332565 0.0 0.0 0.0 0.0
6.05890286 0.0 0.0 0.15012919902801514 0.0014165757456794381 0.0 0.0 0.0 0.0
6.05892286 0.0 0.0 0.12536312639713287 0.002832286525517702 0.0 0.0 0.0 0.0
6.05894286 0.0 0.0 0.1436314582824707 -0.01352385152131319 0.0 0.0 0.0 0.0
6.05896286 0.0 0.0 0.12940937280654907 0.00405699759721756 0.0 0.0 0.0 0.0
6.05898286 0.0 0.0 0.14286112785339355 -0.01851983368396759 0.0 0.0 0.0 0.0
6.05900286 0.0 0.0 0.14563216269016266 -0.00966130942106247 0.0 0.0 0.0 0.0
6.05902286 0.0 0.0 0.13185538351535797 0.007071788888424635 0.0 0.0 0.0 0.0
6.05904286 0.0 0.0 0.14317786693572998 -0.02093360386788845 0.0 0.0 0.0 0.0
6.05906286 0.0 0.0 0.12054333090782166 -0.023455560207366943 0.0 0.0 0.0 0.0
6.05908286 0.0 0.0 0.1203080266714096 -0.011786920949816704 0.0 0.0 0.0 0.0
6.05910286 0.0 0.0 0.14450694620609283 -0.02242301031947136 0.0 0.0 0.0 0.0
6.05912286 0.0 0.0 0.12292040884494781 -0.026711028069257736 0.0 0.0 0.0 0.0
6.05914286 0.0 0.0 0.14947164058685303 -0.035847608000040054 0.0 0.0 0.0 0.0
6.05916286 0.0 0.0 0.11582548171281815 -0.04543048515915871 0.0 0.0 0.0 0.0
6.05918286 0.0 0.0 0.1394960880279541 -0.023314902558922768 0.0 0.0 0.0 0.0
6.05920286 0.0 0.0 0.139261856675148 -0.019336560741066933 0.0 0.0 0.0 0.0
6.05922286 0.0 0.0 0.10990506410598755 -0.045588523149490356 0.0 0.0 0.0 0.0
6.05924286 0.0 0.0 0.1441483497619629 -0.034442830830812454 0.0 0.0 0.0 0.0
6.05926286 0.0 0.0 0.14076462388038635 -0.026002220809459686 0.0 0.0 0.0 0.0
6.05928286 0.0 0.0 0.13247020542621613 -0.0288940891623497 0.0 0.0 0.0 0.0
6.05930286 0.0 0.0 0.13058295845985413 -0.023924540728330612 0.0 0.0 0.0 0.0
6.05932286 0.0 0.0 0.1542031168937683 -0.016163619235157967 0.0 0.0 0.0 0.0
6.05934286 0.0 0.0 0.11839459091424942 -0.055109892040491104 0.0 0.0 0.0 0.0
6.05936286 0.0 0.0 0.12364795804023743 -0.048831112682819366 0.0 0.0 0.0 0.0
6.05938286 0.0 0.0 0.12550033628940582 -0.02882414497435093 0.0 0.0 0.0 0.0
6.05940286 0.0 0.0 0.126324862241745 -0.041304536163806915 0.0 0.0 0.0 0.0
6.05942286 0.0 0.0 0.1310814917087555 -0.04596872255206108 0.0 0.0 0.0 0.0
6.05944286 0.0 0.0 0.1151072233915329 -0.039565276354551315 0.0 0.0 0.0 0.0
6.05946286 0.0 0.0 0.12132147699594498 -0.051981013268232346 0.0 0.0 0.0 0.0
6.05948286 0.0 0.0 0.1418188065290451 -0.02922961115837097 0.0 0.0 0.0 0.0
6.05950286 0.0 0.0 0.1173570305109024 -0.027252985164523125 0.0 0.0 0.0 0.0
6.05952286 0.0 0.0 0.12856647372245789 -0.04486565664410591 0.0 0.0 0.0 0.0
6.05954286 0.0 0.0 0.12915809452533722 -0.0435500293970108 0.0 0.0 0.0 0.0
6.05956286 0.0 0.0 0.12281031906604767 -0.04015796631574631 0.0 0.0 0.0 0.0
6.05958286 0.0 0.0 0.14023645222187042 -0.04848507046699524 0.0 0.0 0.0 0.0
6.05960286 0.0 0.0 0.14320656657218933 -0.04639792442321777 0.0 0.0 0.0 0.0
6.05962286 0.0 0.0 0.11773118376731873 -0.04395638778805733 0.0 0.0 0.0 0.0
6.05964286 0.0 0.0 0.11307685822248459 -0.06838851422071457 0.0 0.0 0.0 0.0
6.05966286 0.0 0.0 0.14743882417678833 -0.04175279662013054 0.0 0.0 0.0 0.0
6.05968286 0.0 0.0 0.1167936846613884 -0.044710732996463776 0.0 0.0 0.0 0.0
6.05970286 0.0 0.0 0.14830544590950012 -0.051341794431209564 0.0 0.0 0.0 0.0
6.05972286 0.0 0.0 0.11815023422241211 -0.06236868351697922 0.0 0.0 0.0 0.0
6.05974286 0.0 0.0 0.1225801631808281 -0.07357355952262878 0.0 0.0 0.0 0.0
6.05976286 0.0 0.0 0.14614425599575043 -0.05465906113386154 0.0 0.0 0.0 0.0
6.05978286 0.0 0.0 0.11745622754096985 -0.06903495639562607 0.0 0.0 0.0 0.0
6.05980286 0.0 0.0 0.12999792397022247 -0.05419980734586716 0.0 0.0 0.0 0.0
6.05982286 0.0 0.0 0.11162786930799484 -0.07872400432825089 0.0 0.0 0.0 0.0
6.05984286 0.0 0.0 0.11379910260438919 -0.05872774496674538 0.0 0.0 0.0 0.0
6.05986286 0.0 0.0 0.1225876733660698 -0.08449145406484604 0.0 0.0 0.0 0.0
6.05988286 0.0 0.0 0.1252802610397339 -0.07227090001106262 0.0 0.0 0.0 0.0
6.05990286 0.0 0.0 0.10823634266853333 -0.06074269115924835 0.0 0.0 0.0 0.0
6.05992286 0.0 0.0 0.11329763382673264 -0.06518642604351044 0.0 0.0 0.0 0.0
6.05994286 0.0 0.0 0.11467954516410828 -0.0680752769112587 0.0 0.0 0.0 0.0
6.05996286 0.0 0.0 0.10761135071516037 -0.07478909939527512 0.0 0.0 0.0 0.0
6.05998286 0.0 0.0 0.12611287832260132 -0.06438810378313065 0.0 0.0 0.0 0.0
6.06000286 0.0 0.0 0.11708253622055054 -0.08517512679100037 0.0 0.0 0.0 0.0
6.06002286 0.0 0.0 0.12808609008789062 -0.07943886518478394 0.0 0.0 0.0 0.0
6.06004286 0.0 0.0 0.11953123658895493 -0.08284210413694382 0.0 0.0 0.0 0.0
6.06006286 0.0 0.0 0.1044645830988884 -0.06303677707910538 0.0 0.0 0.0 0.0
6.06008286 0.0 0.0 0.12130018323659897 -0.08960016071796417 0.0 0.0 0.0 0.0
6.06010286 0.0 0.0 0.09877898544073105 -0.09426557272672653 0.0 0.0 0.0 0.0
6.06012286 0.0 0.0 0.09583515673875809 -0.08623402565717697 0.0 0.0 0.0 0.0
6.06014286 0.0 0.0 0.10467788577079773 -0.07710572332143784 0.0 0.0 0.0 0.0
6.06016286 0.0 0.0 0.12790043652057648 -0.08945906907320023 0.0 0.0 0.0 0.0
6.06018286 0.0 0.0 0.1274290829896927 -0.09859371185302734 0.0 0.0 0.0 0.0
6.06020286 0.0 0.0 0.11562668532133102 -0.08438491076231003 0.0 0.0 0.0 0.0
6.06022286 0.0 0.0 0.10978496819734573 -0.08097818493843079 0.0 0.0 0.0 0.0
6.06024286 0.0 0.0 0.09788651019334793 -0.07969057559967041 0.0 0.0 0.0 0.0
6.06026286 0.0 0.0 0.11710929870605469 -0.09146035462617874 0.0 0.0 0.0 0.0
6.06028286 0.0 0.0 0.103657066822052 -0.07875169068574905 0.0 0.0 0.0 0.0
6.06030286 0.0 0.0 0.0931454598903656 -0.08759446442127228 0.0 0.0 0.0 0.0
6.06032286 0.0 0.0 0.10159055888652802 -0.11036470532417297 0.0 0.0 0.0 0.0
6.06034286 0.0 0.0 0.11371636390686035 -0.10937318950891495 0.0 0.0 0.0 0.0
6.06036286 0.0 0.0 0.1202050969004631 -0.09865528345108032 0.0 0.0 0.0 0.0
6.06038286 0.0 0.0 0.1138545423746109 -0.08288006484508514 0.0 0.0 0.0 0.0
6.06040286 0.0 0.0 0.10631592571735382 -0.10528168082237244 0.0 0.0 0.0 0.0
6.06042286 0.0 0.0 0.10794853419065475 -0.10261677205562592 0.0 0.0 0.0 0.0
6.06044286 0.0 0.0 0.11257598549127579 -0.10894078016281128 0.0 0.0 0.0 0.0
6.06046286 0.0 0.0 0.10265170782804489 -0.10918435454368591 0.0 0.0 0.0 0.0
6.06048286 0.0 0.0 0.11495911329984665 -0.10732462257146835 0.0 0.0 0.0 0.0
6.06050286 0.0 0.0 0.10188066959381104 -0.0997692123055458 0.0 0.0 0.0 0.0
6.06052286 0.0 0.0 0.11055732518434525 -0.10913687944412231 0.0 0.0 0.0 0.0
6.06054286 0.0 0.0 0.09532258659601212 -0.1194012388586998 0.0 0.0 0.0 0.0
6.06056286 0.0 0.0 0.0929277092218399 -0.112260602414608 0.0 0.0 0.0 0.0
6.06058286 0.0 0.0 0.08483174443244934 -0.09926088899374008 0.0 0.0 0.0 0.0
6.06060286 0.0 0.0 0.10676819086074829 -0.11657058447599411 0.0 0.0 0.0 0.0
6.06062286 0.0 0.0 0.11378595232963562 -0.11757463961839676 0.0 0.0 0.0 0.0
6.06064286 0.0 0.0 0.10401425510644913 -0.10938101261854172 0.0 0.0 0.0 0.0
6.06066286 0.0 0.0 0.10542670637369156 -0.1005043014883995 0.0 0.0 0.0 0.0
6.06068286 0.0 0.0 0.09885075688362122 -0.1205463856458664 0.0 0.0 0.0 0.0
6.06070286 0.0 0.0 0.11059564352035522 -0.1143772229552269 0.0 0.0 0.0 0.0
6.06072286 0.0 0.0 0.09606210142374039 -0.10358377546072006 0.0 0.0 0.0 0.0
6.06074286 0.0 0.0 0.09401450306177139 -0.11493845283985138 0.0 0.0 0.0 0.0
6.06076286 0.0 0.0 0.09695874154567719 -0.13801050186157227 0.0 0.0 0.0 0.0
6.06078286 0.0 0.0 0.08015114068984985 -0.1208435520529747 0.0 0.0 0.0 0.0
6.06080286 0.0 0.0 0.09553404152393341 -0.12563936412334442 0.0 0.0 0.0 0.0
6.06082286 0.0 0.0 0.09087447077035904 -0.10863938182592392 0.0 0.0 0.0 0.0
6.06084286 0.0 0.0 0.08404503017663956 -0.12436048686504364 0.0 0.0 0.0 0.0
6.06086286 0.0 0.0 0.0802977979183197 -0.12443987280130386 0.0 0.0 0.0 0.0
6.06088286 0.0 0.0 0.07175567001104355 -0.12496546655893326 0.0 0.0 0.0 0.0
6.06090286 0.0 0.0 0.0755457952618599 -0.1423744112253189 0.0 0.0 0.0 0.0
6.06092286 0.0 0.0 0.09022670239210129 -0.14201687276363373 0.0 0.0 0.0 0.0
6.06094286 0.0 0.0 0.07076513022184372 -0.12825468182563782 0.0 0.0 0.0 0.0
6.06096286 0.0 0.0 0.08411461859941483 -0.12746118009090424 0.0 0.0 0.0 0.0
6.06098286 0.0 0.0 0.0789184644818306 -0.11410359293222427 0.0 0.0 0.0 0.0
6.06100286 0.0 0.0 0.08043690025806427 -0.1292010396718979 0.0 0.0 0.0 0.0
6.06102286 0.0 0.0 0.0735761821269989 -0.12339091300964355 0.0 0.0 0.0 0.0
6.06104286 0.0 0.0 0.08162833750247955 -0.138946071267128 0.0 0.0 0.0 0.0
