! Created with skrf (http://scikit-rf.org).
# GHz S RI R 50.0
!freq ReS11 ImS11 ReS21 ImS21 ReS12 ImS12 ReS22 ImS22
6.05580286 0.0 0.0 0.011101821437478065 0.11882518976926804 0.0 0.0 0.0 0.0
6.05582286 0.0 0.0 0.010646816343069077 0.1110805869102478 0.0 0.0 0.0 0.0
6.05584286 0.0 0.0 0.01934528537094593 0.12356573343276978 0.0 0.0 0.0 0.0
6.05586286 0.0 0.0 0.0059020123444497585 0.12716710567474365 0.0 0.0 0.0 0.0
6.05588286 0.0 0.0 0.009455759078264236 0.11223442852497101 0.0 0.0 0.0 0.0
6.05590286 0.0 0.0 0.02693934366106987 0.12506185472011566 0.0 0.0 0.0 0.0
6.05592286 0.0 0.0 0.008700801059603691 0.10769279301166534 0.0 0.0 0.0 0.0
6.05594286 0.0 0.0 0.027174711227416992 0.10333399474620819 0.0 0.0 0.0 0.0
6.05596286 0.0 0.0 0.022026052698493004 0.10646349936723709 0.0 0.0 0.0 0.0
6.05598286 0.0 0.0 0.026068065315485 0.1115073412656784 0.0 0.0 0.0 0.0
6.05600286 0.0 0.0 0.044101692736148834 0.1112259030342102 0.0 0.0 0.0 0.0
6.05602286 0.0 0.0 0.020197521895170212 0.13104139268398285 0.0 0.0 0.0 0.0
6.05604286 0.0 0.0 0.005610630381852388 0.12602297961711884 0.0 0.0 0.0 0.0
6.05606286 0.0 0.0 0.04282958433032036 0.12256703525781631 0.0 0.0 0.0 0.0
6.05608286 0.0 0.0 0.029002860188484192 0.11760226637125015 0.0 0.0 0.0 0.0
6.05610286 0.0 0.0 0.039362020790576935 0.10234291851520538 0.0 0.0 0.0 0.0
6.05612286 0.0 0.0 0.061128661036491394 0.10132434964179993 0.0 0.0 0.0 0.0
6.05614286 0.0 0.0 0.03627907857298851 0.10714108496904373 0.0 0.0 0.0 0.0
6.05616286 0.0 0.0 0.03065110556781292 0.11191948503255844 0.0 0.0 0.0 0.0
6.05618286 0.0 0.0 0.046247437596321106 0.10580245405435562 0.0 0.0 0.0 0.0
6.05620286 0.0 0.0 0.050735872238874435 0.1092478334903717 0.0 0.0 0.0 0.0
6.05622286 0.0 0.0 0.05598853901028633 0.11049120128154755 0.0 0.0 0.0 0.0
6.05624286 0.0 0.0 0.0452381931245327 0.09695623070001602 0.0 0.0 0.0 0.0
6.05626286 0.0 0.0 0.05991187319159508 0.10188450664281845 0.0 0.0 0.0 0.0
6.05628286 0.0 0.0 0.027588965371251106 0.1058238074183464 0.0 0.0 0.0 0.0
6.05630286 0.0 0.0 0.057953622192144394 0.11946437507867813 0.0 0.0 0.0 0.0
6.05632286 0.0 0.0 0.031812578439712524 0.10922379046678543 0.0 0.0 0.0 0.0
6.05634286 0.0 0.0 0.04082272946834564 0.09511059522628784 0.0 0.0 0.0 0.0
6.05636286 0.0 0.0 0.06940900534391403 0.09481826424598694 0.0 0.0 0.0 0.0
6.05638286 0.0 0.0 0.05456050857901573 0.10457799583673477 0.0 0.0 0.0 0.0
6.05640286 0.0 0.0 0.05026446282863617 0.10079310834407806 0.0 0.0 0.0 0.0
6.05642286 0.0 0.0 0.04740642011165619 0.1187504455447197 0.0 0.0 0.0 0.0
6.05644286 0.0 0.0 0.04857185482978821 0.1364119052886963 0.0 0.0 0.0 0.0
6.05646286 0.0 0.0 0.06950114667415619 0.09811447560787201 0.0 0.0 0.0 0.0
6.05648286 0.0 0.0 0.053285468369722366 0.10886245220899582 0.0 0.0 0.0 0.0
6.05650286 0.0 0.0 0.06219162791967392 0.0888313502073288 0.0 0.0 0.0 0.0
6.05652286 0.0 0.0 0.059993475675582886 0.13424257934093475 0.0 0.0 0.0 0.0
6.05654286 0.0 0.0 0.05621613934636116 0.10115166753530502 0.0 0.0 0.0 0.0
6.05656286 0.0 0.0 0.06192239001393318 0.08528628945350647 0.0 0.0 0.0 0.0
6.05658286 0.0 0.0 0.058379579335451126 0.07215915620326996 0.0 0.0 0.0 0.0
6.05660286 0.0 0.0 0.0515461228787899 0.1117384284734726 0.0 0.0 0.0 0.0
6.05662286 0.0 0.0 0.04883335530757904 0.09054791927337646 0.0 0.0 0.0 0.0
6.05664286 0.0 0.0 0.05946972593665123 0.10341394692659378 0.0 0.0 0.0 0.0
6.05666286 0.0 0.0 0.07503436505794525 0.10357768088579178 0.0 0.0 0.0 0.0
6.05668286 0.0 0.0 0.05600045248866081 0.097282774746418 0.0 0.0 0.0 0.0
6.05670286 0.0 0.0 0.06048128753900528 0.09368828684091568 0.0 0.0 0.0 0.0
6.05672286 0.0 0.0 0.0821104571223259 0.12311302870512009 0.0 0.0 0.0 0.0
6.05674286 0.0 0.0 0.04704860970377922 0.09244833886623383 0.0 0.0 0.0 0.0
6.05676286 0.0 0.0 0.0753946453332901 0.10714595019817352 0.0 0.0 0.0 0.0
6.05678286 0.0 0.0 0.0779532864689827 0.09343466907739639 0.0 0.0 0.0 0.0
6.05680286 0.0 0.0 0.06510957330465317 0.10209418088197708 0.0 0.0 0.0 0.0
6.05682286 0.0 0.0 0.06368859857320786 0.09498941153287888 0.0 0.0 0.0 0.0
6.05684286 0.0 0.0 0.0844661220908165 0.08327098935842514 0.0 0.0 0.0 0.0
6.05686286 0.0 0.0 0.07943236827850342 0.08413456380367279 0.0 0.0 0.0 0.0
6.05688286 0.0 0.0 0.07223305106163025 0.09351471811532974 0.0 0.0 0.0 0.0
6.05690286 0.0 0.0 0.07718516886234283 0.10487719625234604 0.0 0.0 0.0 0.0
6.05692286 0.0 0.0 0.08703573793172836 0.09623602032661438 0.0 0.0 0.0 0.0
6.05694286 0.0 0.0 0.07387731224298477 0.07414723187685013 0.0 0.0 0.0 0.0
6.05696286 0.0 0.0 0.05906252562999725 0.10244191437959671 0.0 0.0 0.0 0.0
6.05698286 0.0 0.0 0.10297606885433197 0.09140333533287048 0.0 0.0 0.0 0.0
6.05700286 0.0 0.0 0.07796790450811386 0.09736723452806473 0.0 0.0 0.0 0.0
6.05702286 0.0 0.0 0.06499718874692917 0.08405495434999466 0.0 0.0 0.0 0.0
6.05704286 0.0 0.0 0.07275738567113876 0.07980359345674515 0.0 0.0 0.0 0.0
6.05706286 0.0 0.0 0.07626280188560486 0.08143334835767746 0.0 0.0 0.0 0.0
6.05708286 0.0 0.0 0.07919464260339737 0.09627191722393036 0.0 0.0 0.0 0.0
6.05710286 0.0 0.0 0.08390030264854431 0.08558820188045502 0.0 0.0 0.0 0.0
6.05712286 0.0 0.0 0.09848189353942871 0.0983273908495903 0.0 0.0 0.0 0.0
6.05714286 0.0 0.0 0.08024619519710541 0.07376483827829361 0.0 0.0 0.0 0.0
6.05716286 0.0 0.0 0.11572699248790741 0.07821071147918701 0.0 0.0 0.0 0.0
6.05718286 0.0 0.0 0.09809114784002304 0.09369471669197083 0.0 0.0 0.0 0.0
6.05720286 0.0 0.0 0.08789370954036713 0.07918582856655121 0.0 0.0 0.0 0.0
6.05722286 0.0 0.0 0.08394315838813782 0.09456157684326172 0.0 0.0 0.0 0.0
6.05724286 0.0 0.0 0.10190337896347046 0.1075441837310791 0.0 0.0 0.0 0.0
6.05726286 0.0 0.0 0.07803929597139359 0.0669645443558693 0.0 0.0 0.0 0.0
6.05728286 0.0 0.0 0.07900543510913849 0.07847907394170761 0.0 0.0 0.0 0.0
6.05730286 0.0 0.0 0.10938512533903122 0.08300714194774628 0.0 0.0 0.0 0.0
6.05732286 0.0 0.0 0.10083868354558945 0.055603597313165665 0.0 0.0 0.0 0.0
6.05734286 0.0 0.0 0.09653617441654205 0.07020042836666107 0.0 0.0 0.0 0.0
6.05736286 0.0 0.0 0.11436526477336884 0.08160857856273651 0.0 0.0 0.0 0.0
6.05738286 0.0 0.0 0.09042700380086899 0.08300404250621796 0.0 0.0 0.0 0.0
6.05740286 0.0 0.0 0.09167825430631638 0.08235219120979309 0.0 0.0 0.0 0.0
6.05742286 0.0 0.0 0.09950435161590576 0.07329339534044266 0.0 0.0 0.0 0.0
6.05744286 0.0 0.0 0.09297970682382584 0.09390955418348312 0.0 0.0 0.0 0.0
6.05746286 0.0 0.0 0.09680220484733582 0.062412526458501816 0.0 0.0 0.0 0.0
6.05748286 0.0 0.0 0.11115355044603348 0.08093349635601044 0.0 0.0 0.0 0.0
6.05750286 0.0 0.0 0.12053565680980682 0.07980658859014511 0.0 0.0 0.0 0.0
6.05752286 0.0 0.0 0.10420889407396317 0.06916563212871552 0.0 0.0 0.0 0.0
6.05754286 0.0 0.0 0.09594374150037766 0.07625538110733032 0.0 0.0 0.0 0.0
6.05756286 0.0 0.0 0.12184372544288635 0.07326146960258484 0.0 0.0 0.0 0.0
6.05758286 0.0 0.0 0.12065570801496506 0.07003186643123627 0.0 0.0 0.0 0.0
6.05760286 0.0 0.0 0.09202921390533447 0.06648940593004227 0.0 0.0 0.0 0.0
6.05762286 0.0 0.0 0.11288488656282425 0.06068405508995056 0.0 0.0 0.0 0.0
6.05764286 0.0 0.0 0.11668193340301514 0.07306023687124252 0.0 0.0 0.0 0.0
6.05766286 0.0 0.0 0.11778076738119125 0.05241522192955017 0.0 0.0 0.0 0.0
6.05768286 0.0 0.0 0.10570668429136276 0.06874532997608185 0.0 0.0 0.0 0.0
6.05770286 0.0 0.0 0.11155987530946732 0.05447622016072273 0.0 0.0 0.0 0.0
6.05772286 0.0 0.0 0.1276462972164154 0.03849116712808609 0.0 0.0 0.0 0.0
6.05774286 0.0 0.0 0.08628074824810028 0.0569077804684639 0.0 0.0 0.0 0.0
6.05776286 0.0 0.0 0.11831381916999817 0.06625097990036011 0.0 0.0 0.0 0.0
6.05778286 0.0 0.0 0.11361509561538696 0.04367780312895775 0.0 0.0 0.0 0.0
6.05780286 0.0 0.0 0.10574613511562347 0.06306785345077515 0.0 0.0 0.0 0.0
6.05782286 0.0 0.0 0.09994690120220184 0.0495600700378418 0.0 0.0 0.0 0.0
6.05784286 0.0 0.0 0.10016054660081863 0.06505857408046722 0.0 0.0 0.0 0.0
6.05786286 0.0 0.0 0.11654742807149887 0.07317472994327545 0.0 0.0 0.0 0.0
6.05788286 0.0 0.0 0.08674558252096176 0.05336100608110428 0.0 0.0 0.0 0.0
6.05790286 0.0 0.0 0.11855923384428024 0.058593183755874634 0.0 0.0 0.0 0.0
6.05792286 0.0 0.0 0.09436361491680145 0.046993687748909 0.0 0.0 0.0 0.0
6.05794286 0.0 0.0 0.10439632087945938 0.045359738171100616 0.0 0.0 0.0 0.0
6.05796286 0.0 0.0 0.11667642742395401 0.04490576311945915 0.0 0.0 0.0 0.0
6.05798286 0.0 0.0 0.12515363097190857 0.045543935149908066 0.0 0.0 0.0 0.0
6.05800286 0.0 0.0 0.1261073648929596 0.044477663934230804 0.0 0.0 0.0 0.0
6.05802286 0.0 0.0 0.11238523572683334 0.05757767707109451 0.0 0.0 0.0 0.0
6.05804286 0.0 0.0 0.12300348281860352 0.03204762563109398 0.0 0.0 0.0 0.0
6.05806286 0.0 0.0 0.1360759437084198 0.04445025324821472 0.0 0.0 0.0 0.0
6.05808286 0.0 0.0 0.12330584973096848 0.04772043600678444 0.0 0.0 0.0 0.0
6.05810286 0.0 0.0 0.12541447579860687 0.03982505947351456 0.0 0.0 0.0 0.0
6.05812286 0.0 0.0 0.10395084321498871 0.03708917275071144 0.0 0.0 0.0 0.0
6.05814286 0.0 0.0 0.12780922651290894 0.031246239319443703 0.0 0.0 0.0 0.0
6.05816286 0.0 0.0 0.13201358914375305 0.04019477963447571 0.0 0.0 0.0 0.0
6.05818286 0.0 0.0 0.12231501936912537 0.050457827746868134 0.0 0.0 0.0 0.0
6.05820286 0.0 0.0 0.11563994735479355 0.06188886985182762 0.0 0.0 0.0 0.0
6.05822286 0.0 0.0 0.12699347734451294 0.02606610395014286 0.0 0.0 0.0 0.0
6.05824286 0.0 0.0 0.14114342629909515 0.04325570538640022 0.0 0.0 0.0 0.0
6.05826286 0.0 0.0 0.1316370964050293 0.02107960544526577 0.0 0.0 0.0 0.0
6.05828286 0.0 0.0 0.11013384163379669 0.04045772925019264 0.0 0.0 0.0 0.0
6.05830286 0.0 0.0 0.13221774995326996 0.034201543778181076 0.0 0.0 0.0 0.0
6.05832286 0.0 0.0 0.12114551663398743 0.04702915623784065 0.0 0.0 0.0 0.0
6.05834286 0.0 0.0 0.1397835612297058 0.03493514284491539 0.0 0.0 0.0 0.0
6.05836286 0.0 0.0 0.11417548358440399 0.030683889985084534 0.0 0.0 0.0 0.0
6.05838286 0.0 0.0 0.1355866938829422 0.04442664235830307 0.0 0.0 0.0 0.0
6.05840286 0.0 0.0 0.1259109526872635 0.002295438665896654 0.0 0.0 0.0 0.0
6.05842286 0.0 0.0 0.12192723900079727 0.017039470374584198 0.0 0.0 0.0 0.0
6.05844286 0.0 0.0 0.14769260585308075 0.016494320705533028 0.0 0.0 0.0 0.0
6.05846286 0.0 0.0 0.11538438498973846 0.005132795311510563 0.0 0.0 0.0 0.0
6.05848286 0.0 0.0 0.16137884557247162 -0.011288261041045189 0.0 0.0 0.0 0.0
6.05850286 0.0 0.0 0.12186270207166672 0.045571908354759216 0.0 0.0 0.0 0.0
6.05852286 0.0 0.0 0.13622979819774628 0.0335085466504097 0.0 0.0 0.0 0.0
6.05854286 0.0 0.0 0.14214545488357544 0.02660471946001053 0.0 0.0 0.0 0.0
6.05856286 0.0 0.0 0.13314883410930634 -0.010457923635840416 0.0 0.0 0.0 0.0
6.05858286 0.0 0.0 0.14156955480575562 0.007286382839083672 0.0 0.0 0.0 0.0
6.05860286 0.0 0.0 0.13703471422195435 0.017579644918441772 0.0 0.0 0.0 0.0
6.05862286 0.0 0.0 0.13304804265499115 0.01115192286670208 0.0 0.0 0.0 0.0
6.05864286 0.0 0.0 0.13308778405189514 0.009786591865122318 0.0 0.0 0.0 0.0
6.05866286 0.0 0.0 0.11388958990573883 0.010088915005326271 0.0 0.0 0.0 0.0
6.05868286 0.0 0.0 0.14819377660751343 -0.003150921780616045 0.0 0.0 0.0 0.0
6.05870286 0.0 0.0 0.1357513964176178 0.002334627788513899 0.0 0.0 0.0 0.0
6.05872286 0.0 0.0 0.13642281293869019 0.0008043464622460306 0.0 0.0 0.0 0.0
6.05874286 0.0 0.0 0.1346517950296402 -0.011609263718128204 0.0 0.0 0.0 0.0
6.05876286 0.0 0.0 0.12007664144039154 -0.007964147254824638 0.0 0.0 0.0 0.0
6.05878286 0.0 0.0 0.14653493463993073 -5.9309968492016196e-05 0.0 0.0 0.0 0.0
6.05880286 0.0 0.0 0.13722965121269226 -0.020445961505174637 0.0 0.0 0.0 0.0
6.05882286 0.0 0.0 0.13158735632896423 -0.00015214354789350182 0.0 0.0 0.0 0.0
6.05884286 0.0 0.0 0.13649317622184753 -0.013583587482571602 0.0 0.0 0.0 0.0
6.05886286 0.0 0.0 0.11957134306430817 -0.016999751329421997 0.0 0.0 0.0 0.0
6.05888286 0.0 0.0 0.11929263174533844 -0.007252278737723827 0.0 0.0 0.0 0.0
6.05890286 0.0 0.0 0.12757866084575653 -0.008710942231118679 0.0 0.0 0.0 0.0
6.05892286 0.0 0.0 0.1323656588792801 -0.011078868992626667 0.0 0.0 0.0 0.0
6.05894286 0.0 0.0 0.1354561597108841 0.0026592412032186985 0.0 0.0 0.0 0.0
6.05896286 0.0 0.0 0.15444090962409973 -0.021083762869238853 0.0 0.0 0.0 0.0
6.05898286 0.0 0.0 0.1376962810754776 -0.01344392728060484 0.0 0.0 0.0 0.0
6.05900286 0.0 0.0 0.12466136366128922 0.0028491253033280373 0.0 0.0 0.0 0.0
6.05902286 0.0 0.0 0.13606278598308563 -0.005558746866881847 0.0 0.0 0.0 0.0
6.05904286 0.0 0.0 0.11663255840539932 -0.02624787762761116 0.0 0.0 0.0 0.0
6.05906286 0.0 0.0 0.1258789747953415 -0.036219533532857895 0.0 0.0 0.0 0.0
6.05908286 0.0 0.0 0.14013691246509552 -0.03577535226941109 0.0 0.0 0.0 0.0
6.05910286 0.0 0.0 0.1430077701807022 -0.008517864160239697 0.0 0.0 0.0 0.0
6.05912286 0.0 0.0 0.14355899393558502 -0.030838655307888985 0.0 0.0 0.0 0.0
6.05914286 0.0 0.0 0.1433742493391037 -0.015711847692728043 0.0 0.0 0.0 0.0
6.05916286 0.0 0.0 0.1349458396434784 -0.02648315019905567 0.0 0.0 0.0 0.0
6.05918286 0.0 0.0 0.1347757875919342 -0.026641706004738808 0.0 0.0 0.0 0.0
6.05920286 0.0 0.0 0.12297648191452026 -0.02043430134654045 0.0 0.0 0.0 0.0
6.05922286 0.0 0.0 0.11720608174800873 -0.007174600847065449 0.0 0.0 0.0 0.0
6.05924286 0.0 0.0 0.11670850962400436 -0.030196204781532288 0.0 0.0 0.0 0.0
6.05926286 0.0 0.0 0.1481921672821045 -0.026211827993392944 0.0 0.0 0.0 0.0
6.05928286 0.0 0.0 0.11703865975141525 -0.04069780558347702 0.0 0.0 0.0 0.0
6.05930286 0.0 0.0 0.1223050057888031 -0.0313178226351738 0.0 0.0 0.0 0.0
6.05932286 0.0 0.0 0.12938827276229858 -0.03132474794983864 0.0 0.0 0.0 0.0
6.05934286 0.0 0.0 0.12863390147686005 -0.026026347652077675 0.0 0.0 0.0 0.0
6.05936286 0.0 0.0 0.10699326545000076 -0.06501103192567825 0.0 0.0 0.0 0.0
6.05938286 0.0 0.0 0.12270763516426086 -0.020049626007676125 0.0 0.0 0.0 0.0
6.05940286 0.0 0.0 0.14048083126544952 -0.0377671979367733 0.0 0.0 0.0 0.0
6.05942286 0.0 0.0 0.12355661392211914 -0.043896857649087906 0.0 0.0 0.0 0.0
6.05944286 0.0 0.0 0.12237878888845444 -0.04296290501952171 0.0 0.0 0.0 0.0
6.05946286 0.0 0.0 0.1429988145828247 -0.03902465105056763 0.0 0.0 0.0 0.0
6.05948286 0.0 0.0 0.13834939897060394 -0.03156396374106407 0.0 0.0 0.0 0.0
6.05950286 0.0 0.0 0.12235338240861893 -0.03151379153132439 0.0 0.0 0.0 0.0
6.05952286 0.0 0.0 0.1316792219877243 -0.04428277909755707 0.0 0.0 0.0 0.0
6.05954286 0.0 0.0 0.1400316208600998 -0.04651555046439171 0.0 0.0 0.0 0.0
6.05956286 0.0 0.0 0.12949159741401672 -0.06059660017490387 0.0 0.0 0.0 0.0
6.05958286 0.0 0.0 0.1259615421295166 -0.06350535154342651 0.0 0.0 0.0 0.0
6.05960286 0.0 0.0 0.12707364559173584 -0.04911882430315018 0.0 0.0 0.0 0.0
6.05962286 0.0 0.0 0.14383046329021454 -0.05674872174859047 0.0 0.0 0.0 0.0
6.05964286 0.0 0.0 0.12146606296300888 -0.06187682971358299 0.0 0.0 0.0 0.0
6.05966286 0.0 0.0 0.1438535749912262 -0.060013752430677414 0.0 0.0 0.0 0.0
6.05968286 0.0 0.0 0.11383847892284393 -0.03425269201397896 0.0 0.0 0.0 0.0
6.05970286 0.0 0.0 0.1364753395318985 -0.07720997184515 0.0 0.0 0.0 0.0
6.05972286 0.0 0.0 0.1304175853729248 -0.050927843898534775 0.0 0.0 0.0 0.0
6.05974286 0.0 0.0 0.1427212953567505 -0.0608077198266983 0.0 0.0 0.0 0.0
6.05976286 0.0 0.0 0.11500522494316101 -0.06785555928945541 0.0 0.0 0.0 0.0
6.05978286 0.0 0.0 0.11125008761882782 -0.0583043247461319 0.0 0.0 0.0 0.0
6.05980286 0.0 0.0 0.11616779863834381 -0.037099163979291916 0.0 0.0 0.0 0.0
6.05982286 0.0 0.0 0.12132909148931503 -0.06467532366514206 0.0 0.0 0.0 0.0
6.05984286 0.0 0.0 0.12510065734386444 -0.0477789081633091 0.0 0.0 0.0 0.0
6.05986286 0.0 0.0 0.11832401156425476 -0.053388144820928574 0.0 0.0 0.0 0.0
6.05988286 0.0 0.0 0.11888981610536575 -0.05190586671233177 0.0 0.0 0.0 0.0
6.05990286 0.0 0.0 0.13713562488555908 -0.04942012205719948 0.0 0.0 0.0 0.0
6.05992286 0.0 0.0 0.13554370403289795 -0.07218579202890396 0.0 0.0 0.0 0.0
6.05994286 0.0 0.0 0.12313193082809448 -0.07131493091583252 0.0 0.0 0.0 0.0
6.05996286 0.0 0.0 0.11074487119913101 -0.07968152314424515 0.0 0.0 0.0 0.0
6.05998286 0.0 0.0 0.10094062238931656 -0.07157550752162933 0.0 0.0 0.0 0.0
6.06000286 0.0 0.0 0.1121622622013092 -0.09092045575380325 0.0 0.0 0.0 0.0
6.06002286 0.0 0.0 0.13148196041584015 -0.06720184534788132 0.0 0.0 0.0 0.0
6.06004286 0.0 0.0 0.1138390451669693 -0.06589147448539734 0.0 0.0 0.0 0.0
6.06006286 0.0 0.0 0.10942844301462173 -0.075066477060318 0.0 0.0 0.0 0.0
6.06008286 0.0 0.0 0.11073210090398788 -0.08325522392988205 0.0 0.0 0.0 0.0
6.06010286 0.0 0.0 0.11343711614608765 -0.08878637850284576 0.0 0.0 0.0 0.0
6.06012286 0.0 0.0 0.12746715545654297 -0.09212913364171982 0.0 0.0 0.0 0.0
6.06014286 0.0 0.0 0.12956801056861877 -0.08360068500041962 0.0 0.0 0.0 0.0
6.06016286 0.0 0.0 0.10669661313295364 -0.07960924506187439 0.0 0.0 0.0 0.0
6.06018286 0.0 0.0 0.1087120920419693 -0.08780987560749054 0.0 0.0 0.0 0.0
6.06020286 0.0 0.0 0.10501927137374878 -0.08121445029973984 0.0 0.0 0.0 0.0
6.06022286 0.0 0.0 0.11446430534124374 -0.09483413398265839 0.0 0.0 0.0 0.0
6.06024286 0.0 0.0 0.1201120987534523 -0.10294010490179062 0.0 0.0 0.0 0.0
6.06026286 0.0 0.0 0.12207605689764023 -0.0643770843744278 0.0 0.0 0.0 0.0
6.06028286 0.0 0.0 0.11285929381847382 -0.09431354701519012 0.0 0.0 0.0 0.0
6.06030286 0.0 0.0 0.10018227249383926 -0.09351332485675812 0.0 0.0 0.0 0.0
6.06032286 0.0 0.0 0.11421483755111694 -0.1055065467953682 0.0 0.0 0.0 0.0
6.06034286 0.0 0.0 0.10719842463731766 -0.10591992735862732 0.0 0.0 0.0 0.0
6.06036286 0.0 0.0 0.12438777834177017 -0.0942234918475151 0.0 0.0 0.0 0.0
6.06038286 0.0 0.0 0.11784814298152924 -0.10036864131689072 0.0 0.0 0.0 0.0
6.06040286 0.0 0.0 0.09586913883686066 -0.08921501785516739 0.0 0.0 0.0 0.0
6.06042286 0.0 0.0 0.1062672883272171 -0.11380627751350403 0.0 0.0 0.0 0.0
6.06044286 0.0 0.0 0.10381096601486206 -0.1054987758398056 0.0 0.0 0.0 0.0
6.06046286 0.0 0.0 0.11378344148397446 -0.09214414656162262 0.0 0.0 0.0 0.0
6.06048286 0.0 0.0 0.08794800192117691 -0.11639614403247833 0.0 0.0 0.0 0.0
6.06050286 0.0 0.0 0.08960898965597153 -0.09185364842414856 0.0 0.0 0.0 0.0
6.06052286 0.0 0.0 0.09506036341190338 -0.11860490590333939 0.0 0.0 0.0 0.0
6.06054286 0.0 0.0 0.1056329682469368 -0.09432899206876755 0.0 0.0 0.0 0.0
6.06056286 0.0 0.0 0.10636255890130997 -0.11554702371358871 0.0 0.0 0.0 0.0
6.06058286 0.0 0.0 0.09320259839296341 -0.09873054921627045 0.0 0.0 0.0 0.0
6.06060286 0.0 0.0 0.09258213639259338 -0.09975099563598633 0.0 0.0 0.0 0.0
6.06062286 0.0 0.0 0.0887589231133461 -0.1095852479338646 0.0 0.0 0.0 0.0
6.06064286 0.0 0.0 0.08406993001699448 -0.0975859984755516 0.0 0.0 0.0 0.0
6.06066286 0.0 0.0 0.1015574112534523 -0.11097760498523712 0.0 0.0 0.0 0.0
6.06068286 0.0 0.0 0.09978314489126205 -0.09990102052688599 0.0 0.0 0.0 0.0
6.06070286 0.0 0.0 0.1052117869257927 -0.09899275749921799 0.0 0.0 0.0 0.0
6.06072286 0.0 0.0 0.10335218161344528 -0.09986385703086853 0.0 0.0 0.0 0.0
6.06074286 0.0 0.0 0.08236457407474518 -0.09453315287828445 0.0 0.0 0.0 0.0
6.06076286 0.0 0.0 0.09089909493923187 -0.14132119715213776 0.0 0.0 0.0 0.0
6.06078286 0.0 0.0 0.0651329904794693 -0.11344010382890701 0.0 0.0 0.0 0.0
6.06080286 0.0 0.0 0.08498038351535797 -0.1311245560646057 0.0 0.0 0.0 0.0
6.06082286 0.0 0.0 0.08965922147035599 -0.11399330943822861 0.0 0.0 0.0 0.0
6.06084286 0.0 0.0 0.0863691195845604 -0.11695978790521622 0.0 0.0 0.0 0.0
6.06086286 0.0 0.0 0.07509507983922958 -0.11390741914510727 0.0 0.0 0.0 0.0
6.06088286 0.0 0.0 0.08127420395612717 -0.12092705070972443 0.0 0.0 0.0 0.0
6.06090286 0.0 0.0 0.09722641855478287 -0.11415648460388184 0.0 0.0 0.0 0.0
6.06092286 0.0 0.0 0.0824958011507988 -0.12369993329048157 0.0 0.0 0.0 0.0
6.06094286 0.0 0.0 0.08768195658922195 -0.12870024144649506 0.0 0.0 0.0 0.0
6.06096286 0.0 0.0 0.0874103307723999 -0.11985959857702255 0.0 0.0 0.0 0.0
6.06098286 0.0 0.0 0.05750492960214615 -0.1316239833831787 0.0 0.0 0.0 0.0
6.06100286 0.0 0.0 0.09517619013786316 -0.12030616402626038 0.0 0.0 0.0 0.0
6.06102286 0.0 0.0 0.07439161837100983 -0.14029335975646973 0.0 0.0 0.0 0.0
6.06104286 0.0 0.0 0.08468202501535416 -0.13299213349819183 0.0 0.0 0.0 0.0
