! Created with skrf (http://scikit-rf.org).
# Hz S RI R 50.0 
!freq ReS11 ImS11 ReS21 ImS21 ReS12 ImS12 ReS22 ImS22
6055802860.0 0.0 0.0 1.1101820746262092e-05 0.00011882519174832851 0.0 0.0 0.0 0.0
6055822860.0 0.0 0.0 1.0646816917869728e-05 0.00011108058970421553 0.0 0.0 0.0 0.0
6055842860.0 0.0 0.0 1.9345285181771033e-05 0.00012356574006844312 0.0 0.0 0.0 0.0
6055862860.0 0.0 0.0 5.902012617298169e-06 0.00012716710625682026 0.0 0.0 0.0 0.0
6055882860.0 0.0 0.0 9.455759027332533e-06 0.00011223443289054558 0.0 0.0 0.0 0.0
6055902860.0 0.0 0.0 2.693934402486775e-05 0.00012506185157690197 0.0 0.0 0.0 0.0
6055922860.0 0.0 0.0 8.700801117811352e-06 0.00010769279469968751 0.0 0.0 0.0 0.0
6055942860.0 0.0 0.0 2.7174710339750163e-05 0.00010333399404771626 0.0 0.0 0.0 0.0
6055962860.0 0.0 0.0 2.2026053557056002e-05 0.00010646349983289838 0.0 0.0 0.0 0.0
6055982860.0 0.0 0.0 2.606806629046332e-05 0.00011150733917020261 0.0 0.0 0.0 0.0
6056002860.0 0.0 0.0 4.4101692765252665e-05 0.000111225905129686 0.0 0.0 0.0 0.0
6056022860.0 0.0 0.0 2.0197521735099144e-05 0.00013104139361530542 0.0 0.0 0.0 0.0
6056042860.0 0.0 0.0 5.610630523733562e-06 0.00012602297647390515 0.0 0.0 0.0 0.0
6056062860.0 0.0 0.0 4.282958252588287e-05 0.00012256702757440507 0.0 0.0 0.0 0.0
6056082860.0 0.0 0.0 2.9002860173932277e-05 0.00011760226334445179 0.0 0.0 0.0 0.0
6056102860.0 0.0 0.0 3.936202119803056e-05 0.00010234292130917311 0.0 0.0 0.0 0.0
6056122860.0 0.0 0.0 6.112865958129987e-05 0.00010132434545084834 0.0 0.0 0.0 0.0
6056142860.0 0.0 0.0 3.627907790360041e-05 0.00010714108066167682 0.0 0.0 0.0 0.0
6056162860.0 0.0 0.0 3.0651106499135494e-05 0.00011191948578925803 0.0 0.0 0.0 0.0
6056182860.0 0.0 0.0 4.6247438149293885e-05 0.00010580245725577697 0.0 0.0 0.0 0.0
6056202860.0 0.0 0.0 5.073587453807704e-05 0.00010924783418886364 0.0 0.0 0.0 0.0
6056222860.0 0.0 0.0 5.598853749688715e-05 0.0001104912007576786 0.0 0.0 0.0 0.0
6056242860.0 0.0 0.0 4.523819370660931e-05 9.695623157313094e-05 0.0 0.0 0.0 0.0
6056262860.0 0.0 0.0 5.991187208564952e-05 0.0001018845068756491 0.0 0.0 0.0 0.0
6056282860.0 0.0 0.0 2.7588965167524293e-05 0.00010582380491541699 0.0 0.0 0.0 0.0
6056302860.0 0.0 0.0 5.795362085336819e-05 0.0001194643773487769 0.0 0.0 0.0 0.0
6056322860.0 0.0 0.0 3.1812578527024016e-05 0.00010922378714894876 0.0 0.0 0.0 0.0
6056342860.0 0.0 0.0 4.08227278967388e-05 9.511059761280194e-05 0.0 0.0 0.0 0.0
6056362860.0 0.0 0.0 6.94090049364604e-05 9.481826418777928e-05 0.0 0.0 0.0 0.0
6056382860.0 0.0 0.0 5.456050712382421e-05 0.00010457799362484366 0.0 0.0 0.0 0.0
6056402860.0 0.0 0.0 5.026446160627529e-05 0.00010079310595756397 0.0 0.0 0.0 0.0
6056422860.0 0.0 0.0 4.7406421799678355e-05 0.000118750445835758 0.0 0.0 0.0 0.0
6056442860.0 0.0 0.0 4.85718555864878e-05 0.00013641190889757127 0.0 0.0 0.0 0.0
6056462860.0 0.0 0.0 6.950114766368642e-05 9.811447671381757e-05 0.0 0.0 0.0 0.0
6056482860.0 0.0 0.0 5.3285468311514705e-05 0.0001088624558178708 0.0 0.0 0.0 0.0
6056502860.0 0.0 0.0 6.219162605702877e-05 8.883135160431266e-05 0.0 0.0 0.0 0.0
6056522860.0 0.0 0.0 5.9993475588271394e-05 0.00013424256758298725 0.0 0.0 0.0 0.0
6056542860.0 0.0 0.0 5.621613672701642e-05 0.00010115166514879093 0.0 0.0 0.0 0.0
6056562860.0 0.0 0.0 6.192238652147353e-05 8.528628677595407e-05 0.0 0.0 0.0 0.0
6056582860.0 0.0 0.0 5.837957723997533e-05 7.215915684355423e-05 0.0 0.0 0.0 0.0
6056602860.0 0.0 0.0 5.15461215400137e-05 0.00011173842358402908 0.0 0.0 0.0 0.0
6056622860.0 0.0 0.0 4.883335350314155e-05 9.054791735252365e-05 0.0 0.0 0.0 0.0
6056642860.0 0.0 0.0 5.946972669335082e-05 0.00010341394954593852 0.0 0.0 0.0 0.0
6056662860.0 0.0 0.0 7.503436063416302e-05 0.00010357768042013049 0.0 0.0 0.0 0.0
6056682860.0 0.0 0.0 5.600045187748037e-05 9.728277655085549e-05 0.0 0.0 0.0 0.0
6056702860.0 0.0 0.0 6.048128489055671e-05 9.368828614242375e-05 0.0 0.0 0.0 0.0
6056722860.0 0.0 0.0 8.211045496864244e-05 0.00012311302998568863 0.0 0.0 0.0 0.0
6056742860.0 0.0 0.0 4.704860839410685e-05 9.244833927368745e-05 0.0 0.0 0.0 0.0
6056762860.0 0.0 0.0 7.539464422734454e-05 0.00010714595555327833 0.0 0.0 0.0 0.0
6056782860.0 0.0 0.0 7.795328565407544e-05 9.343466808786616e-05 0.0 0.0 0.0 0.0
6056802860.0 0.0 0.0 6.510957609862089e-05 0.00010209417814621702 0.0 0.0 0.0 0.0
6056822860.0 0.0 0.0 6.36885961284861e-05 9.49894092627801e-05 0.0 0.0 0.0 0.0
6056842860.0 0.0 0.0 8.446611900581047e-05 8.327099203597754e-05 0.0 0.0 0.0 0.0
6056862860.0 0.0 0.0 7.943237142171711e-05 8.413456089328974e-05 0.0 0.0 0.0 0.0
6056882860.0 0.0 0.0 7.223305146908388e-05 9.35147181735374e-05 0.0 0.0 0.0 0.0
6056902860.0 0.0 0.0 7.71851628087461e-05 0.00010487719555385411 0.0 0.0 0.0 0.0
6056922860.0 0.0 0.0 8.703573985258117e-05 9.623602090869099e-05 0.0 0.0 0.0 0.0
6056942860.0 0.0 0.0 7.387730875052512e-05 7.414722495013848e-05 0.0 0.0 0.0 0.0
6056962860.0 0.0 0.0 5.9062527725473046e-05 0.00010244191798847169 0.0 0.0 0.0 0.0
6056982860.0 0.0 0.0 0.00010297606786480173 9.140332986135036e-05 0.0 0.0 0.0 0.0
6057002860.0 0.0 0.0 7.796790305292234e-05 9.736723586684093e-05 0.0 0.0 0.0 0.0
6057022860.0 0.0 0.0 6.499719165731221e-05 8.405495464103296e-05 0.0 0.0 0.0 0.0
6057042860.0 0.0 0.0 7.275738607859239e-05 7.980359077919275e-05 0.0 0.0 0.0 0.0
6057062860.0 0.0 0.0 7.626279693795368e-05 8.143334707710892e-05 0.0 0.0 0.0 0.0
6057082860.0 0.0 0.0 7.919464405858889e-05 9.627192048355937e-05 0.0 0.0 0.0 0.0
6057102860.0 0.0 0.0 8.390029688598588e-05 8.5588195361197e-05 0.0 0.0 0.0 0.0
6057122860.0 0.0 0.0 9.848189074546099e-05 9.832739306148142e-05 0.0 0.0 0.0 0.0
6057142860.0 0.0 0.0 8.024619455682114e-05 7.376483699772507e-05 0.0 0.0 0.0 0.0
6057162860.0 0.0 0.0 0.0001157269871328026 7.821070903446525e-05 0.0 0.0 0.0 0.0
6057182860.0 0.0 0.0 9.809114271774888e-05 9.369471808895469e-05 0.0 0.0 0.0 0.0
6057202860.0 0.0 0.0 8.789371349848807e-05 7.91858255979605e-05 0.0 0.0 0.0 0.0
6057222860.0 0.0 0.0 8.394315955229104e-05 9.45615756791085e-05 0.0 0.0 0.0 0.0
6057242860.0 0.0 0.0 0.00010190338070970029 0.00010754418326541781 0.0 0.0 0.0 0.0
6057262860.0 0.0 0.0 7.80392947490327e-05 6.696454511256889e-05 0.0 0.0 0.0 0.0
6057282860.0 0.0 0.0 7.900544005678967e-05 7.84790754551068e-05 0.0 0.0 0.0 0.0
6057302860.0 0.0 0.0 0.00010938512423308566 8.300714398501441e-05 0.0 0.0 0.0 0.0
6057322860.0 0.0 0.0 0.00010083868983201683 5.5603599321329966e-05 0.0 0.0 0.0 0.0
6057342860.0 0.0 0.0 9.65361759881489e-05 7.020043267402798e-05 0.0 0.0 0.0 0.0
6057362860.0 0.0 0.0 0.00011436526983743533 8.160858124028891e-05 0.0 0.0 0.0 0.0
6057382860.0 0.0 0.0 9.042700548889115e-05 8.300404442707077e-05 0.0 0.0 0.0 0.0
6057402860.0 0.0 0.0 9.167825191980228e-05 8.235219138441607e-05 0.0 0.0 0.0 0.0
6057422860.0 0.0 0.0 9.950435196515173e-05 7.329339860007167e-05 0.0 0.0 0.0 0.0
6057442860.0 0.0 0.0 9.297970973420888e-05 9.390954801347107e-05 0.0 0.0 0.0 0.0
6057462860.0 0.0 0.0 9.680220682639629e-05 6.2412531406153e-05 0.0 0.0 0.0 0.0
6057482860.0 0.0 0.0 0.00011115355300717056 8.093349606497213e-05 0.0 0.0 0.0 0.0
6057502860.0 0.0 0.0 0.0001205356529681012 7.980658847372979e-05 0.0 0.0 0.0 0.0
6057522860.0 0.0 0.0 0.00010420889157103375 6.916563143022358e-05 0.0 0.0 0.0 0.0
6057542860.0 0.0 0.0 9.594374569132924e-05 7.625538273714483e-05 0.0 0.0 0.0 0.0
6057562860.0 0.0 0.0 0.00012184373190393671 7.326147169806063e-05 0.0 0.0 0.0 0.0
6057582860.0 0.0 0.0 0.00012065570626873523 7.003186328802258e-05 0.0 0.0 0.0 0.0
6057602860.0 0.0 0.0 9.202921501128003e-05 6.648940325248986e-05 0.0 0.0 0.0 0.0
6057622860.0 0.0 0.0 0.00011288488167338073 6.068405491532758e-05 0.0 0.0 0.0 0.0
6057642860.0 0.0 0.0 0.00011668193474179134 7.306023326236755e-05 0.0 0.0 0.0 0.0
6057662860.0 0.0 0.0 0.00011778076441260055 5.241522012511268e-05 0.0 0.0 0.0 0.0
6057682860.0 0.0 0.0 0.00010570668382570148 6.874533573864028e-05 0.0 0.0 0.0 0.0
6057702860.0 0.0 0.0 0.00011155987158417702 5.447622243082151e-05 0.0 0.0 0.0 0.0
6057722860.0 0.0 0.0 0.00012764630082529038 3.849116910714656e-05 0.0 0.0 0.0 0.0
6057742860.0 0.0 0.0 8.628075011074543e-05 5.6907778343884274e-05 0.0 0.0 0.0 0.0
6057762860.0 0.0 0.0 0.00011831381561933085 6.625097739743069e-05 0.0 0.0 0.0 0.0
6057782860.0 0.0 0.0 0.00011361509677954018 4.367780638858676e-05 0.0 0.0 0.0 0.0
6057802860.0 0.0 0.0 0.00010574613406788558 6.306785508058965e-05 0.0 0.0 0.0 0.0
6057822860.0 0.0 0.0 9.99468975351192e-05 4.956006887368858e-05 0.0 0.0 0.0 0.0
6057842860.0 0.0 0.0 0.00010016054875450209 6.505857163574547e-05 0.0 0.0 0.0 0.0
6057862860.0 0.0 0.0 0.00011654743138933554 7.317472773138434e-05 0.0 0.0 0.0 0.0
6057882860.0 0.0 0.0 8.674558193888515e-05 5.336100730346516e-05 0.0 0.0 0.0 0.0
6057902860.0 0.0 0.0 0.00011855923366965726 5.859318480361253e-05 0.0 0.0 0.0 0.0
6057922860.0 0.0 0.0 9.436361870029941e-05 4.6993689466034994e-05 0.0 0.0 0.0 0.0
6057942860.0 0.0 0.0 0.00010439632023917511 4.535973857855424e-05 0.0 0.0 0.0 0.0
6057962860.0 0.0 0.0 0.0001166764268418774 4.490576247917488e-05 0.0 0.0 0.0 0.0
6057982860.0 0.0 0.0 0.00012515363050624728 4.55439330835361e-05 0.0 0.0 0.0 0.0
6058002860.0 0.0 0.0 0.00012610736303031445 4.4477663323050365e-05 0.0 0.0 0.0 0.0
6058022860.0 0.0 0.0 0.00011238524166401476 5.757767576142214e-05 0.0 0.0 0.0 0.0
6058042860.0 0.0 0.0 0.00012300348316784948 3.204762833775021e-05 0.0 0.0 0.0 0.0
6058062860.0 0.0 0.0 0.00013607593427877873 4.445025115273893e-05 0.0 0.0 0.0 0.0
6058082860.0 0.0 0.0 0.0001233058428624645 4.7720437578391284e-05 0.0 0.0 0.0 0.0
6058102860.0 0.0 0.0 0.00012541447358671576 3.982505950261839e-05 0.0 0.0 0.0 0.0
6058122860.0 0.0 0.0 0.00010395084245828912 3.708917574840598e-05 0.0 0.0 0.0 0.0
6058142860.0 0.0 0.0 0.00012780922406818718 3.124623981420882e-05 0.0 0.0 0.0 0.0
6058162860.0 0.0 0.0 0.00013201359251979738 4.0194780012825504e-05 0.0 0.0 0.0 0.0
6058182860.0 0.0 0.0 0.00012231501750648022 5.045782745582983e-05 0.0 0.0 0.0 0.0
6058202860.0 0.0 0.0 0.00011563994485186413 6.188886618474498e-05 0.0 0.0 0.0 0.0
6058222860.0 0.0 0.0 0.00012699348735623062 2.6066103600896895e-05 0.0 0.0 0.0 0.0
6058242860.0 0.0 0.0 0.0001411434350302443 4.325570262153633e-05 0.0 0.0 0.0 0.0
6058262860.0 0.0 0.0 0.00013163709081709385 2.107960608555004e-05 0.0 0.0 0.0 0.0
6058282860.0 0.0 0.0 0.00011013384209945798 4.0457729483023286e-05 0.0 0.0 0.0 0.0
6058302860.0 0.0 0.0 0.00013221775589045137 3.420154098421335e-05 0.0 0.0 0.0 0.0
6058322860.0 0.0 0.0 0.00012114551645936444 4.702915612142533e-05 0.0 0.0 0.0 0.0
6058342860.0 0.0 0.0 0.0001397835585521534 3.49351430486422e-05 0.0 0.0 0.0 0.0
6058362860.0 0.0 0.0 0.00011417548375902697 3.06838883261662e-05 0.0 0.0 0.0 0.0
6058382860.0 0.0 0.0 0.0001355866843368858 4.442664430825971e-05 0.0 0.0 0.0 0.0
6058402860.0 0.0 0.0 0.00012591095583047718 2.2954386622586753e-06 0.0 0.0 0.0 0.0
6058422860.0 0.0 0.0 0.00012192724534543231 1.7039468730217777e-05 0.0 0.0 0.0 0.0
6058442860.0 0.0 0.0 0.00014769259723834693 1.649432124395389e-05 0.0 0.0 0.0 0.0
6058462860.0 0.0 0.0 0.00011538438411662355 5.132795195095241e-06 0.0 0.0 0.0 0.0
6058482860.0 0.0 0.0 0.0001613788481336087 -1.1288261703157332e-05 0.0 0.0 0.0 0.0
6058502860.0 0.0 0.0 0.00012186270032543689 4.557190914056264e-05 0.0 0.0 0.0 0.0
6058522860.0 0.0 0.0 0.00013622979167848825 3.350854603922926e-05 0.0 0.0 0.0 0.0
6058542860.0 0.0 0.0 0.00014214545080903918 2.6604719096212648e-05 0.0 0.0 0.0 0.0
6058562860.0 0.0 0.0 0.00013314883108250797 -1.0457923963258509e-05 0.0 0.0 0.0 0.0
6058582860.0 0.0 0.0 0.00014156955876387656 7.286382697202498e-06 0.0 0.0 0.0 0.0
6058602860.0 0.0 0.0 0.00013703471631743014 1.7579644918441772e-05 0.0 0.0 0.0 0.0
6058622860.0 0.0 0.0 0.0001330480445176363 1.115192299039336e-05 0.0 0.0 0.0 0.0
6058642860.0 0.0 0.0 0.00013308777124620974 9.786591363081243e-06 0.0 0.0 0.0 0.0
6058662860.0 0.0 0.0 0.00011388958955649287 1.008891558740288e-05 0.0 0.0 0.0 0.0
6058682860.0 0.0 0.0 0.0001481937651988119 -3.150921884298441e-06 0.0 0.0 0.0 0.0
6058702860.0 0.0 0.0 0.0001357513974653557 2.3346276520896936e-06 0.0 0.0 0.0 0.0
6058722860.0 0.0 0.0 0.0001364228082820773 8.043464276852319e-07 0.0 0.0 0.0 0.0
6058742860.0 0.0 0.0 0.00013465179654303938 -1.160926422016928e-05 0.0 0.0 0.0 0.0
6058762860.0 0.0 0.0 0.00012007664190605283 -7.964146789163351e-06 0.0 0.0 0.0 0.0
6058782860.0 0.0 0.0 0.00014653493417426944 -5.9309968492016196e-08 0.0 0.0 0.0 0.0
6058802860.0 0.0 0.0 0.00013722965377382934 -2.044596112682484e-05 0.0 0.0 0.0 0.0
6058822860.0 0.0 0.0 0.00013158736692275852 -1.5214354220915993e-07 0.0 0.0 0.0 0.0
6058842860.0 0.0 0.0 0.0001364931813441217 -1.3583588042820338e-05 0.0 0.0 0.0 0.0
6058862860.0 0.0 0.0 0.00011957134847762063 -1.6999751096591353e-05 0.0 0.0 0.0 0.0
6058882860.0 0.0 0.0 0.00011929263564525172 -7.252278464875417e-06 0.0 0.0 0.0 0.0
6058902860.0 0.0 0.0 0.00012757866352330893 -8.71094198373612e-06 0.0 0.0 0.0 0.0
6058922860.0 0.0 0.0 0.0001323656615568325 -1.107886873796815e-05 0.0 0.0 0.0 0.0
6058942860.0 0.0 0.0 0.0001354561682092026 2.6592410904413555e-06 0.0 0.0 0.0 0.0
6058962860.0 0.0 0.0 0.00015444090240634978 -2.1083762476337142e-05 0.0 0.0 0.0 0.0
6058982860.0 0.0 0.0 0.00013769627548754215 -1.3443926945910789e-05 0.0 0.0 0.0 0.0
6059002860.0 0.0 0.0 0.0001246613683179021 2.849125166903832e-06 0.0 0.0 0.0 0.0
6059022860.0 0.0 0.0 0.00013606279389932752 -5.5587470342288725e-06 0.0 0.0 0.0 0.0
6059042860.0 0.0 0.0 0.00011663256009342149 -2.624787884997204e-05 0.0 0.0 0.0 0.0
6059062860.0 0.0 0.0 0.00012587897072080523 -3.621953510446474e-05 0.0 0.0 0.0 0.0
6059082860.0 0.0 0.0 0.00014013692270964384 -3.577535244403407e-05 0.0 0.0 0.0 0.0
6059102860.0 0.0 0.0 0.00014300778275355697 -8.517864444002043e-06 0.0 0.0 0.0 0.0
6059122860.0 0.0 0.0 0.00014355899475049227 -3.083865522057749e-05 0.0 0.0 0.0 0.0
6059142860.0 0.0 0.0 0.00014337424363475293 -1.5711848391219974e-05 0.0 0.0 0.0 0.0
6059162860.0 0.0 0.0 0.000134945847094059 -2.6483150577405468e-05 0.0 0.0 0.0 0.0
6059182860.0 0.0 0.0 0.0001347757934127003 -2.664170642674435e-05 0.0 0.0 0.0 0.0
6059202860.0 0.0 0.0 0.00012297647481318563 -2.0434301404748112e-05 0.0 0.0 0.0 0.0
6059222860.0 0.0 0.0 0.00011720608017640188 -7.1746007961337455e-06 0.0 0.0 0.0 0.0
6059242860.0 0.0 0.0 0.00011670851381495595 -3.019620453414973e-05 0.0 0.0 0.0 0.0
6059262860.0 0.0 0.0 0.00014819216448813677 -2.621182647999376e-05 0.0 0.0 0.0 0.0
6059282860.0 0.0 0.0 0.00011703866039169952 -4.069780698046088e-05 0.0 0.0 0.0 0.0
6059302860.0 0.0 0.0 0.0001223050057888031 -3.131782068521716e-05 0.0 0.0 0.0 0.0
6059322860.0 0.0 0.0 0.00012938828149344772 -3.132474739686586e-05 0.0 0.0 0.0 0.0
6059342860.0 0.0 0.0 0.00012863389565609396 -2.6026347768492997e-05 0.0 0.0 0.0 0.0
6059362860.0 0.0 0.0 0.00010699326958274469 -6.501103052869439e-05 0.0 0.0 0.0 0.0
6059382860.0 0.0 0.0 0.00012270762817934155 -2.0049626982654445e-05 0.0 0.0 0.0 0.0
6059402860.0 0.0 0.0 0.00014048084267415106 -3.776719677262008e-05 0.0 0.0 0.0 0.0
6059422860.0 0.0 0.0 0.00012355661601759493 -4.389686000649817e-05 0.0 0.0 0.0 0.0
6059442860.0 0.0 0.0 0.00012237878399901092 -4.296290353522636e-05 0.0 0.0 0.0 0.0
6059462860.0 0.0 0.0 0.00014299880422186106 -3.902465323335491e-05 0.0 0.0 0.0 0.0
6059482860.0 0.0 0.0 0.0001383493945468217 -3.1563962693326175e-05 0.0 0.0 0.0 0.0
6059502860.0 0.0 0.0 0.0001223533763550222 -3.1513791327597573e-05 0.0 0.0 0.0 0.0
6059522860.0 0.0 0.0 0.00013167921861167997 -4.428277679835446e-05 0.0 0.0 0.0 0.0
6059542860.0 0.0 0.0 0.00014003162505105138 -4.651554991141893e-05 0.0 0.0 0.0 0.0
6059562860.0 0.0 0.0 0.00012949160009156913 -6.0596597904805094e-05 0.0 0.0 0.0 0.0
6059582860.0 0.0 0.0 0.00012596153828781098 -6.350535113597289e-05 0.0 0.0 0.0 0.0
6059602860.0 0.0 0.0 0.0001270736538572237 -4.911882570013404e-05 0.0 0.0 0.0 0.0
6059622860.0 0.0 0.0 0.00014383046072907746 -5.674871863448061e-05 0.0 0.0 0.0 0.0
6059642860.0 0.0 0.0 0.00012146606604801491 -6.187683175085112e-05 0.0 0.0 0.0 0.0
6059662860.0 0.0 0.0 0.0001438535691704601 -6.0013753682142124e-05 0.0 0.0 0.0 0.0
6059682860.0 0.0 0.0 0.00011383848323021084 -3.425269460421987e-05 0.0 0.0 0.0 0.0
6059702860.0 0.0 0.0 0.00013647534069605172 -7.720997382421046e-05 0.0 0.0 0.0 0.0
6059722860.0 0.0 0.0 0.0001304175821132958 -5.092784340376966e-05 0.0 0.0 0.0 0.0
6059742860.0 0.0 0.0 0.0001427212991984561 -6.080772072891705e-05 0.0 0.0 0.0 0.0
6059762860.0 0.0 0.0 0.00011500522668939084 -6.785555888200179e-05 0.0 0.0 0.0 0.0
6059782860.0 0.0 0.0 0.00011125009041279554 -5.830432564835064e-05 0.0 0.0 0.0 0.0
6059802860.0 0.0 0.0 0.0001161677937489003 -3.709916563821025e-05 0.0 0.0 0.0 0.0
6059822860.0 0.0 0.0 0.00012132908886997029 -6.467532512033358e-05 0.0 0.0 0.0 0.0
6059842860.0 0.0 0.0 0.00012510066153481603 -4.777890717377886e-05 0.0 0.0 0.0 0.0
6059862860.0 0.0 0.0 0.00011832401651190594 -5.338814662536606e-05 0.0 0.0 0.0 0.0
6059882860.0 0.0 0.0 0.00011888980952790007 -5.190586671233177e-05 0.0 0.0 0.0 0.0
6059902860.0 0.0 0.0 0.00013713561929762363 -4.9420123104937375e-05 0.0 0.0 0.0 0.0
6059922860.0 0.0 0.0 0.00013554369797930121 -7.218579412437975e-05 0.0 0.0 0.0 0.0
6059942860.0 0.0 0.0 0.00012313193292357028 -7.131493475753814e-05 0.0 0.0 0.0 0.0
6059962860.0 0.0 0.0 0.00011074486974393949 -7.968152203829959e-05 0.0 0.0 0.0 0.0
6059982860.0 0.0 0.0 0.00010094061872223392 -7.157550135161728e-05 0.0 0.0 0.0 0.0
6060002860.0 0.0 0.0 0.00011216226266697049 -9.092046093428507e-05 0.0 0.0 0.0 0.0
6060022860.0 0.0 0.0 0.00013148195284884423 -6.720184319419786e-05 0.0 0.0 0.0 0.0
6060042860.0 0.0 0.0 0.00011383905075490475 -6.58914796076715e-05 0.0 0.0 0.0 0.0
6060062860.0 0.0 0.0 0.00010942844528472051 -7.506647671107203e-05 0.0 0.0 0.0 0.0
6060082860.0 0.0 0.0 0.0001107321004383266 -8.325522503582761e-05 0.0 0.0 0.0 0.0
6060102860.0 0.0 0.0 0.00011343711230438203 -8.878637891029939e-05 0.0 0.0 0.0 0.0
6060122860.0 0.0 0.0 0.00012746715219691396 -9.212913573719561e-05 0.0 0.0 0.0 0.0
6060142860.0 0.0 0.0 0.00012956801219843328 -8.360068022739142e-05 0.0 0.0 0.0 0.0
6060162860.0 0.0 0.0 0.0001066966142388992 -7.960924267536029e-05 0.0 0.0 0.0 0.0
6060182860.0 0.0 0.0 0.00010871209087781608 -8.780987263889983e-05 0.0 0.0 0.0 0.0
6060202860.0 0.0 0.0 0.00010501927317818627 -8.121444989228621e-05 0.0 0.0 0.0 0.0
6060222860.0 0.0 0.0 0.0001144643101724796 -9.483413305133581e-05 0.0 0.0 0.0 0.0
6060242860.0 0.0 0.0 0.00012011209764750674 -0.00010294011008227244 0.0 0.0 0.0 0.0
6060262860.0 0.0 0.0 0.0001220760605065152 -6.43770836177282e-05 0.0 0.0 0.0 0.0
6060282860.0 0.0 0.0 0.00011285929213045165 -9.43135455599986e-05 0.0 0.0 0.0 0.0
6060302860.0 0.0 0.0 0.00010018227476393804 -9.35133284656331e-05 0.0 0.0 0.0 0.0
6060322860.0 0.0 0.0 0.00011421483941376209 -0.00010550655133556575 0.0 0.0 0.0 0.0
6060342860.0 0.0 0.0 0.0001071984224836342 -0.00010591992759145796 0.0 0.0 0.0 0.0
6060362860.0 0.0 0.0 0.00012438777775969356 -9.422349103260785e-05 0.0 0.0 0.0 0.0
6060382860.0 0.0 0.0 0.00011784813978010789 -0.00010036864114226773 0.0 0.0 0.0 0.0
6060402860.0 0.0 0.0 9.58691380219534e-05 -8.921502012526616e-05 0.0 0.0 0.0 0.0
6060422860.0 0.0 0.0 0.0001062672890839167 -0.00011380627256585285 0.0 0.0 0.0 0.0
6060442860.0 0.0 0.0 0.00010381096217315644 -0.0001054987806128338 0.0 0.0 0.0 0.0
6060462860.0 0.0 0.0 0.00011378344061085954 -9.214414603775367e-05 0.0 0.0 0.0 0.0
6060482860.0 0.0 0.0 8.794799941824749e-05 -0.00011639614240266383 0.0 0.0 0.0 0.0
6060502860.0 0.0 0.0 8.960899140220135e-05 -9.185364615404978e-05 0.0 0.0 0.0 0.0
6060522860.0 0.0 0.0 9.506036440143362e-05 -0.00011860490485560149 0.0 0.0 0.0 0.0
6060542860.0 0.0 0.0 0.00010563297109911218 -9.432899241801351e-05 0.0 0.0 0.0 0.0
6060562860.0 0.0 0.0 0.00010636256047291681 -0.00011554702359717339 0.0 0.0 0.0 0.0
6060582860.0 0.0 0.0 9.320259414380416e-05 -9.873055387288332e-05 0.0 0.0 0.0 0.0
6060602860.0 0.0 0.0 9.258213685825467e-05 -9.975099237635732e-05 0.0 0.0 0.0 0.0
6060622860.0 0.0 0.0 8.875892672222108e-05 -0.00010958524944726378 0.0 0.0 0.0 0.0
