! Created with skrf (http://scikit-rf.org).
# Hz S RI R 50.0
!freq ReS11 ImS11 ReS21 ImS21 ReS12 ImS12 ReS22 ImS22
7251730754.4 0.0 0.0 0.9892657793044337 -0.10304851867749097 0.0 0.0 0.0 0.0
7251730915.066747 0.0 0.0 0.9892610728195365 -0.1030708621457891 0.0 0.0 0.0 0.0
7251731075.733493 0.0 0.0 0.9892563632498181 -0.10309321519654926 0.0 0.0 0.0 0.0
7251731236.40024 0.0 0.0 0.9892516505925362 -0.10311557783612958 0.0 0.0 0.0 0.0
7251731397.066986 0.0 0.0 0.989246934845057 -0.10313795007036256 0.0 0.0 0.0 0.0
7251731557.733733 0.0 0.0 0.989242216004632 -0.10316033190561669 0.0 0.0 0.0 0.0
7251731718.400479 0.0 0.0 0.9892374940686219 -0.10318272334773451 0.0 0.0 0.0 0.0
7251731879.067226 0.0 0.0 0.9892327690342724 -0.103205124403095 0.0 0.0 0.0 0.0
7251732039.733973 0.0 0.0 0.9892280408989381 -0.10322753507755064 0.0 0.0 0.0 0.0
7251732200.40072 0.0 0.0 0.9892233096598588 -0.10324995537749092 0.0 0.0 0.0 0.0
7251732361.067467 0.0 0.0 0.9892185753143555 -0.1032723853089115 0.0 0.0 0.0 0.0
7251732521.734213 0.0 0.0 0.9892138378597461 -0.1032948248778129 0.0 0.0 0.0 0.0
7251732682.400959 0.0 0.0 0.9892090972932615 -0.1033172740906004 0.0 0.0 0.0 0.0
7251732843.067706 0.0 0.0 0.9892043536122418 -0.10333973295315156 0.0 0.0 0.0 0.0
7251733003.734453 0.0 0.0 0.989199606813912 -0.10336220147188216 0.0 0.0 0.0 0.0
7251733164.401199 0.0 0.0 0.9891948568956064 -0.10338467965267988 0.0 0.0 0.0 0.0
7251733325.067946 0.0 0.0 0.9891901038545438 -0.10340716750197104 0.0 0.0 0.0 0.0
7251733485.734694 0.0 0.0 0.9891853476880246 -0.10342966502578693 0.0 0.0 0.0 0.0
7251733646.40144 0.0 0.0 0.9891805883933463 -0.10345217223016386 0.0 0.0 0.0 0.0
7251733807.068187 0.0 0.0 0.9891758259677187 -0.10347468912154396 0.0 0.0 0.0 0.0
7251733967.734933 0.0 0.0 0.9891710604084616 -0.10349721570584028 0.0 0.0 0.0 0.0
7251734128.40168 0.0 0.0 0.9891662917127787 -0.10351975198950553 0.0 0.0 0.0 0.0
7251734289.068426 0.0 0.0 0.9891615198779838 -0.10354229797846289 0.0 0.0 0.0 0.0
7251734449.735173 0.0 0.0 0.9891567449012749 -0.10356485367917573 0.0 0.0 0.0 0.0
7251734610.401919 0.0 0.0 0.9891519667799598 -0.10358741909757739 0.0 0.0 0.0 0.0
7251734771.068666 0.0 0.0 0.9891471855112302 -0.10360999424014194 0.0 0.0 0.0 0.0
7251734931.735414 0.0 0.0 0.9891424010923596 -0.10363257911294697 0.0 0.0 0.0 0.0
7251735092.40216 0.0 0.0 0.989137613520619 -0.10365517372207494 0.0 0.0 0.0 0.0
7251735253.068907 0.0 0.0 0.9891328227931909 -0.10367777807401601 0.0 0.0 0.0 0.0
7251735413.735653 0.0 0.0 0.9891280289073684 -0.10370039217472898 0.0 0.0 0.0 0.0
7251735574.4024 0.0 0.0 0.9891232318603279 -0.1037230160307147 0.0 0.0 0.0 0.0
7251735735.069146 0.0 0.0 0.9891184316493568 -0.10374564964794217 0.0 0.0 0.0 0.0
7251735895.735893 0.0 0.0 0.9891136282716251 -0.10376829303292295 0.0 0.0 0.0 0.0
7251736056.40264 0.0 0.0 0.9891088217243857 -0.10379094619177089 0.0 0.0 0.0 0.0
7251736217.0693865 0.0 0.0 0.9891040120048884 -0.1038136091306048 0.0 0.0 0.0 0.0
7251736377.736134 0.0 0.0 0.9890991991102942 -0.10383628185595235 0.0 0.0 0.0 0.0
7251736538.40288 0.0 0.0 0.9890943830378754 -0.10385896437380834 0.0 0.0 0.0 0.0
7251736699.069627 0.0 0.0 0.989089563784787 -0.10388165669071121 0.0 0.0 0.0 0.0
7251736859.736373 0.0 0.0 0.9890847413482952 -0.1039043588126661 0.0 0.0 0.0 0.0
7251737020.40312 0.0 0.0 0.9890799157255487 -0.10392707074622222 0.0 0.0 0.0 0.0
7251737181.069866 0.0 0.0 0.9890750869138076 -0.10394979249739504 0.0 0.0 0.0 0.0
7251737341.736613 0.0 0.0 0.9890702549102148 -0.10397252407274468 0.0 0.0 0.0 0.0
7251737502.40336 0.0 0.0 0.9890654197119957 -0.10399526547843195 0.0 0.0 0.0 0.0
7251737663.0701065 0.0 0.0 0.9890605813163725 -0.10401801672062275 0.0 0.0 0.0 0.0
7251737823.736854 0.0 0.0 0.9890557397204788 -0.10404077780589344 0.0 0.0 0.0 0.0
7251737984.4036 0.0 0.0 0.9890508949215595 -0.10406354874028545 0.0 0.0 0.0 0.0
7251738145.070347 0.0 0.0 0.9890460469167417 -0.10408632953038605 0.0 0.0 0.0 0.0
7251738305.737093 0.0 0.0 0.9890411957032643 -0.10410912018224705 0.0 0.0 0.0 0.0
7251738466.40384 0.0 0.0 0.9890363412782481 -0.10413192070246663 0.0 0.0 0.0 0.0
7251738627.070586 0.0 0.0 0.9890314836389261 -0.10415473109710706 0.0 0.0 0.0 0.0
7251738787.737333 0.0 0.0 0.9890266227824128 -0.10417755137277744 0.0 0.0 0.0 0.0
7251738948.40408 0.0 0.0 0.9890217587059061 -0.10420038153568602 0.0 0.0 0.0 0.0
7251739109.070827 0.0 0.0 0.9890168914066008 -0.1042232215920463 0.0 0.0 0.0 0.0
7251739269.737574 0.0 0.0 0.9890120208816021 -0.10424607154848371 0.0 0.0 0.0 0.0
7251739430.404321 0.0 0.0 0.9890071471281274 -0.1042689314110868 0.0 0.0 0.0 0.0
7251739591.071067 0.0 0.0 0.9890022701432757 -0.10429180118649205 0.0 0.0 0.0 0.0
7251739751.737813 0.0 0.0 0.9889973899242583 -0.10431468088079847 0.0 0.0 0.0 0.0
7251739912.40456 0.0 0.0 0.9889925064681678 -0.1043375705006536 0.0 0.0 0.0 0.0
7251740073.071307 0.0 0.0 0.9889876197721803 -0.10436047005230296 0.0 0.0 0.0 0.0
7251740233.738053 0.0 0.0 0.988982729833469 -0.10438337954199717 0.0 0.0 0.0 0.0
7251740394.4048 0.0 0.0 0.988977836649117 -0.10440629897640036 0.0 0.0 0.0 0.0
7251740555.071547 0.0 0.0 0.98897294021632 -0.10442922836163789 0.0 0.0 0.0 0.0
7251740715.738294 0.0 0.0 0.9889680405321549 -0.10445216770438491 0.0 0.0 0.0 0.0
7251740876.40504 0.0 0.0 0.9889631375938112 -0.10447511701077747 0.0 0.0 0.0 0.0
7251741037.071787 0.0 0.0 0.9889582313983593 -0.10449807628750175 0.0 0.0 0.0 0.0
7251741197.738533 0.0 0.0 0.9889533219429826 -0.10452104554070439 0.0 0.0 0.0 0.0
7251741358.40528 0.0 0.0 0.988948409224745 -0.10454402477708273 0.0 0.0 0.0 0.0
7251741519.072027 0.0 0.0 0.9889434932407946 -0.10456701400293054 0.0 0.0 0.0 0.0
7251741679.738773 0.0 0.0 0.9889385739882763 -0.10459001322454681 0.0 0.0 0.0 0.0
7251741840.40552 0.0 0.0 0.9889336514642444 -0.10461302244864555 0.0 0.0 0.0 0.0
7251742001.072267 0.0 0.0 0.9889287256658666 -0.10463604168140009 0.0 0.0 0.0 0.0
7251742161.739014 0.0 0.0 0.9889237965901909 -0.10465907092953562 0.0 0.0 0.0 0.0
7251742322.40576 0.0 0.0 0.9889188642343789 -0.10468211019923612 0.0 0.0 0.0 0.0
7251742483.072507 0.0 0.0 0.9889139285954717 -0.10470515949723798 0.0 0.0 0.0 0.0
7251742643.739254 0.0 0.0 0.9889089896705953 -0.10472821882987285 0.0 0.0 0.0 0.0
7251742804.406001 0.0 0.0 0.9889040474568727 -0.10475128820347758 0.0 0.0 0.0 0.0
7251742965.072747 0.0 0.0 0.9888991019513352 -0.10477436762480541 0.0 0.0 0.0 0.0
7251743125.739493 0.0 0.0 0.988894153151129 -0.10479745710006717 0.0 0.0 0.0 0.0
7251743286.40624 0.0 0.0 0.9888892010532789 -0.10482055663602736 0.0 0.0 0.0 0.0
7251743447.072986 0.0 0.0 0.9888842456549245 -0.10484366623890756 0.0 0.0 0.0 0.0
7251743607.739734 0.0 0.0 0.9888792869530842 -0.10486678591548354 0.0 0.0 0.0 0.0
7251743768.40648 0.0 0.0 0.9888743249448915 -0.10488991567198772 0.0 0.0 0.0 0.0
7251743929.073227 0.0 0.0 0.988869359627358 -0.10491305551520715 0.0 0.0 0.0 0.0
7251744089.739974 0.0 0.0 0.988864390997581 -0.10493620545152249 0.0 0.0 0.0 0.0
7251744250.40672 0.0 0.0 0.9888594190526548 -0.10495936548731981 0.0 0.0 0.0 0.0
7251744411.073467 0.0 0.0 0.9888544437895815 -0.10498253562940309 0.0 0.0 0.0 0.0
7251744571.740213 0.0 0.0 0.9888494652054781 -0.10500571588403186 0.0 0.0 0.0 0.0
7251744732.4069605 0.0 0.0 0.9888444832973404 -0.10502890625802154 0.0 0.0 0.0 0.0
7251744893.073707 0.0 0.0 0.988839498062279 -0.1050521067576425 0.0 0.0 0.0 0.0
7251745053.740454 0.0 0.0 0.988834509497283 -0.1050753173897215 0.0 0.0 0.0 0.0
7251745214.407201 0.0 0.0 0.988829517599427 -0.10509853816067778 0.0 0.0 0.0 0.0
7251745375.073947 0.0 0.0 0.9888245223657824 -0.10512176907693585 0.0 0.0 0.0 0.0
7251745535.740695 0.0 0.0 0.9888195237933285 -0.10514501014533958 0.0 0.0 0.0 0.0
7251745696.40744 0.0 0.0 0.9888145218791596 -0.10516826137218668 0.0 0.0 0.0 0.0
7251745857.074187 0.0 0.0 0.9888095166202484 -0.1051915227643325 0.0 0.0 0.0 0.0
7251746017.740933 0.0 0.0 0.9888045080136829 -0.10521479432808566 0.0 0.0 0.0 0.0
7251746178.40768 0.0 0.0 0.988799496056429 -0.10523807607031298 0.0 0.0 0.0 0.0
7251746339.074427 0.0 0.0 0.9887944807455684 -0.10526136799733411 0.0 0.0 0.0 0.0
7251746499.741174 0.0 0.0 0.9887894620780601 -0.10528467011602731 0.0 0.0 0.0 0.0
7251746660.407921 0.0 0.0 0.9887844400509493 -0.10530798243286164 0.0 0.0 0.0 0.0
7251746821.074666 0.0 0.0 0.9887794146612783 -0.10533130495431169 0.0 0.0 0.0 0.0
7251746981.741414 0.0 0.0 0.988774385905996 -0.10535463768727292 0.0 0.0 0.0 0.0
7251747142.40816 0.0 0.0 0.9887693537821677 -0.1053779806380926 0.0 0.0 0.0 0.0
7251747303.074907 0.0 0.0 0.9887643182867359 -0.10540133381367778 0.0 0.0 0.0 0.0
7251747463.741653 0.0 0.0 0.9887592794167592 -0.10542469722038678 0.0 0.0 0.0 0.0
7251747624.408401 0.0 0.0 0.9887542371691735 -0.10544807086513822 0.0 0.0 0.0 0.0
7251747785.075147 0.0 0.0 0.9887491915410309 -0.10547145475430153 0.0 0.0 0.0 0.0
7251747945.741894 0.0 0.0 0.9887441425292602 -0.10549484889480693 0.0 0.0 0.0 0.0
7251748106.408641 0.0 0.0 0.9887390901308771 -0.10551825329317392 0.0 0.0 0.0 0.0
7251748267.075387 0.0 0.0 0.9887340343428936 -0.10554166795592743 0.0 0.0 0.0 0.0
7251748427.742134 0.0 0.0 0.9887289751622288 -0.10556509289001509 0.0 0.0 0.0 0.0
7251748588.40888 0.0 0.0 0.9887239125859182 -0.1055885281018342 0.0 0.0 0.0 0.0
7251748749.075627 0.0 0.0 0.9887188466108737 -0.10561197359834402 0.0 0.0 0.0 0.0
7251748909.742373 0.0 0.0 0.9887137772341243 -0.10563542938595301 0.0 0.0 0.0 0.0
7251749070.409121 0.0 0.0 0.9887087044525754 -0.10565889547163211 0.0 0.0 0.0 0.0
7251749231.075868 0.0 0.0 0.988703628263219 -0.10568237186194039 0.0 0.0 0.0 0.0
7251749391.742614 0.0 0.0 0.988698548663044 -0.10570585856344233 0.0 0.0 0.0 0.0
7251749552.40936 0.0 0.0 0.9886934656489452 -0.10572935558312647 0.0 0.0 0.0 0.0
7251749713.076107 0.0 0.0 0.9886883792179351 -0.1057528629274293 0.0 0.0 0.0 0.0
7251749873.742854 0.0 0.0 0.9886832893669018 -0.10577638060335105 0.0 0.0 0.0 0.0
7251750034.4096 0.0 0.0 0.9886781960928507 -0.10579990861733952 0.0 0.0 0.0 0.0
7251750195.076347 0.0 0.0 0.9886730993926631 -0.10582344697640671 0.0 0.0 0.0 0.0
7251750355.7430935 0.0 0.0 0.988667999263338 -0.10584699568701161 0.0 0.0 0.0 0.0
7251750516.409841 0.0 0.0 0.9886628957017497 -0.10587055475617811 0.0 0.0 0.0 0.0
7251750677.076588 0.0 0.0 0.9886577887048599 -0.10589412419051643 0.0 0.0 0.0 0.0
7251750837.743334 0.0 0.0 0.988652678269627 -0.1059177039966424 0.0 0.0 0.0 0.0
7251750998.410081 0.0 0.0 0.9886475643929152 -0.10594129418159753 0.0 0.0 0.0 0.0
7251751159.076827 0.0 0.0 0.9886424470717062 -0.10596489475186924 0.0 0.0 0.0 0.0
7251751319.743574 0.0 0.0 0.9886373263028574 -0.10598850571451082 0.0 0.0 0.0 0.0
7251751480.41032 0.0 0.0 0.9886322020833436 -0.10601212707602106 0.0 0.0 0.0 0.0
7251751641.077067 0.0 0.0 0.9886270744100152 -0.10603575884346517 0.0 0.0 0.0 0.0
7251751801.743814 0.0 0.0 0.9886219432798099 -0.10605940102349365 0.0 0.0 0.0 0.0
7251751962.410561 0.0 0.0 0.9886168086896623 -0.10608305362276253 0.0 0.0 0.0 0.0
7251752123.077308 0.0 0.0 0.9886116706364122 -0.10610671664835497 0.0 0.0 0.0 0.0
7251752283.744054 0.0 0.0 0.9886065291170174 -0.10613039010679819 0.0 0.0 0.0 0.0
7251752444.410801 0.0 0.0 0.9886013841283109 -0.1061540740051872 0.0 0.0 0.0 0.0
7251752605.077547 0.0 0.0 0.9885962356672438 -0.10617776835006075 0.0 0.0 0.0 0.0
7251752765.744294 0.0 0.0 0.9885910837306418 -0.10620147314852582 0.0 0.0 0.0 0.0
7251752926.41104 0.0 0.0 0.9885859283154491 -0.10622518840713258 0.0 0.0 0.0 0.0
7251753087.077787 0.0 0.0 0.9885807694184846 -0.10624891413300006 0.0 0.0 0.0 0.0
7251753247.7445345 0.0 0.0 0.9885756070366549 -0.1062726503328308 0.0 0.0 0.0 0.0
7251753408.411281 0.0 0.0 0.9885704411668638 -0.10629639701333309 0.0 0.0 0.0 0.0
7251753569.078028 0.0 0.0 0.9885652718059189 -0.10632015418164391 0.0 0.0 0.0 0.0
7251753729.744774 0.0 0.0 0.9885600989507477 -0.10634392184434226 0.0 0.0 0.0 0.0
7251753890.411521 0.0 0.0 0.988554922598151 -0.10636770000857719 0.0 0.0 0.0 0.0
7251754051.078267 0.0 0.0 0.988549742745049 -0.10639148868093926 0.0 0.0 0.0 0.0
7251754211.745014 0.0 0.0 0.9885445593882356 -0.10641528786858957 0.0 0.0 0.0 0.0
7251754372.41176 0.0 0.0 0.9885393725246239 -0.10643909757813032 0.0 0.0 0.0 0.0
7251754533.078507 0.0 0.0 0.9885341821510008 -0.10646291781673467 0.0 0.0 0.0 0.0
7251754693.7452545 0.0 0.0 0.9885289882642416 -0.1064867485911579 0.0 0.0 0.0 0.0
7251754854.412001 0.0 0.0 0.9885237908612186 -0.10651058990816091 0.0 0.0 0.0 0.0
7251755015.078748 0.0 0.0 0.9885185899387074 -0.10653444177493514 0.0 0.0 0.0 0.0
7251755175.745494 0.0 0.0 0.9885133854936041 -0.10655830419811177 0.0 0.0 0.0 0.0
7251755336.412241 0.0 0.0 0.9885081775226775 -0.10658217718489445 0.0 0.0 0.0 0.0
7251755497.078987 0.0 0.0 0.9885029660228163 -0.10660606074192601 0.0 0.0 0.0 0.0
7251755657.745734 0.0 0.0 0.9884977509907821 -0.10662995487642228 0.0 0.0 0.0 0.0
7251755818.412481 0.0 0.0 0.9884925324234258 -0.10665385959517974 0.0 0.0 0.0 0.0
7251755979.079227 0.0 0.0 0.9884873103175946 -0.10667777490500062 0.0 0.0 0.0 0.0
7251756139.745975 0.0 0.0 0.9884820846700395 -0.1067017008131191 0.0 0.0 0.0 0.0
7251756300.412721 0.0 0.0 0.9884768554776315 -0.10672563732620728 0.0 0.0 0.0 0.0
7251756461.079468 0.0 0.0 0.9884716227371142 -0.10674958445151156 0.0 0.0 0.0 0.0
7251756621.746214 0.0 0.0 0.9884663864453517 -0.10677354219571593 0.0 0.0 0.0 0.0
7251756782.412961 0.0 0.0 0.9884611465990804 -0.10679751056607899 0.0 0.0 0.0 0.0
7251756943.079708 0.0 0.0 0.9884559031951571 -0.10682148956929649 0.0 0.0 0.0 0.0
7251757103.746454 0.0 0.0 0.988450656230311 -0.10684547921263939 0.0 0.0 0.0 0.0
7251757264.413201 0.0 0.0 0.9884454057013607 -0.1068694795029577 0.0 0.0 0.0 0.0
7251757425.079947 0.0 0.0 0.9884401516051217 -0.10689349044710729 0.0 0.0 0.0 0.0
7251757585.746695 0.0 0.0 0.9884348939383116 -0.10691751205237758 0.0 0.0 0.0 0.0
7251757746.413441 0.0 0.0 0.98842963269777 -0.10694154432549391 0.0 0.0 0.0 0.0
7251757907.080188 0.0 0.0 0.9884243678802073 -0.1069655872737581 0.0 0.0 0.0 0.0
7251758067.746934 0.0 0.0 0.9884190994824557 -0.10698964090390732 0.0 0.0 0.0 0.0
7251758228.413681 0.0 0.0 0.9884138275012185 -0.10701370522325585 0.0 0.0 0.0 0.0
7251758389.080428 0.0 0.0 0.9884085519332895 -0.10703778023869567 0.0 0.0 0.0 0.0
7251758549.747174 0.0 0.0 0.9884032727754583 -0.10706186595712465 0.0 0.0 0.0 0.0
7251758710.413921 0.0 0.0 0.9883979900244173 -0.10708596238587566 0.0 0.0 0.0 0.0
7251758871.0806675 0.0 0.0 0.9883927036769806 -0.10711006953171572 0.0 0.0 0.0 0.0
7251759031.747415 0.0 0.0 0.9883874137298332 -0.10713418740199013 0.0 0.0 0.0 0.0
7251759192.414161 0.0 0.0 0.9883821201797818 -0.10715831600347787 0.0 0.0 0.0 0.0
7251759353.080908 0.0 0.0 0.9883768230235038 -0.10718245534353675 0.0 0.0 0.0 0.0
7251759513.747654 0.0 0.0 0.9883715222577989 -0.10720660542895775 0.0 0.0 0.0 0.0
7251759674.414402 0.0 0.0 0.9883662178793371 -0.10723076626711116 0.0 0.0 0.0 0.0
7251759835.081148 0.0 0.0 0.9883609098848792 -0.1072549378649435 0.0 0.0 0.0 0.0
7251759995.747894 0.0 0.0 0.9883555982711824 -0.1072791202294071 0.0 0.0 0.0 0.0
7251760156.414641 0.0 0.0 0.9883502830349054 -0.10730331336789115 0.0 0.0 0.0 0.0
7251760317.081387 0.0 0.0 0.9883449641728296 -0.10732751728721666 0.0 0.0 0.0 0.0
7251760477.748135 0.0 0.0 0.9883396416816065 -0.10735173199478543 0.0 0.0 0.0 0.0
7251760638.414881 0.0 0.0 0.9883343155580099 -0.10737595749743051 0.0 0.0 0.0 0.0
7251760799.081628 0.0 0.0 0.9883289857986839 -0.10740019380256631 0.0 0.0 0.0 0.0
7251760959.748373 0.0 0.0 0.988323652400395 -0.10742444091703804 0.0 0.0 0.0 0.0
7251761120.415121 0.0 0.0 0.9883183153597797 -0.1074486988482727 0.0 0.0 0.0 0.0
7251761281.081868 0.0 0.0 0.9883129746735654 -0.10747296760327169 0.0 0.0 0.0 0.0
7251761441.748614 0.0 0.0 0.9883076303384761 -0.10749724718904248 0.0 0.0 0.0 0.0
7251761602.415361 0.0 0.0 0.988302282351137 -0.107521537613031 0.0 0.0 0.0 0.0
7251761763.082108 0.0 0.0 0.9882969307082962 -0.10754583888211293 0.0 0.0 0.0 0.0
7251761923.748855 0.0 0.0 0.9882915754065711 -0.1075701510037469 0.0 0.0 0.0 0.0
7251762084.415601 0.0 0.0 0.9882862164427025 -0.10759447398482075 0.0 0.0 0.0 0.0
7251762245.082348 0.0 0.0 0.9882808538133003 -0.10761880783280589 0.0 0.0 0.0 0.0
7251762405.749095 0.0 0.0 0.9882754875150661 -0.10764315255474693 0.0 0.0 0.0 0.0
7251762566.415841 0.0 0.0 0.9882701175446976 -0.10766750815769441 0.0 0.0 0.0 0.0
7251762727.082588 0.0 0.0 0.9882647438987933 -0.10769187464913892 0.0 0.0 0.0 0.0
7251762887.749334 0.0 0.0 0.9882593665740752 -0.10771625203599886 0.0 0.0 0.0 0.0
7251763048.416082 0.0 0.0 0.9882539855671343 -0.10774064032577761 0.0 0.0 0.0 0.0
7251763209.082828 0.0 0.0 0.9882486008746852 -0.10776503952540589 0.0 0.0 0.0 0.0
7251763369.749575 0.0 0.0 0.9882432124933112 -0.10778944964239989 0.0 0.0 0.0 0.0
7251763530.416321 0.0 0.0 0.9882378204197191 -0.10781387068370266 0.0 0.0 0.0 0.0
7251763691.083067 0.0 0.0 0.9882324246504846 -0.10783830265684322 0.0 0.0 0.0 0.0
7251763851.749815 0.0 0.0 0.9882270251822752 -0.10786274556892206 0.0 0.0 0.0 0.0
7251764012.416561 0.0 0.0 0.9882216220117549 -0.10788719942704578 0.0 0.0 0.0 0.0
7251764173.083308 0.0 0.0 0.9882162151354874 -0.10791166423876271 0.0 0.0 0.0 0.0
7251764333.750054 0.0 0.0 0.9882108045501612 -0.10793614001104684 0.0 0.0 0.0 0.0
7251764494.416801 0.0 0.0 0.9882053902523323 -0.1079606267514594 0.0 0.0 0.0 0.0
7251764655.083548 0.0 0.0 0.9881999722386815 -0.1079851244669868 0.0 0.0 0.0 0.0
7251764815.750295 0.0 0.0 0.9881945505057571 -0.10800963316520328 0.0 0.0 0.0 0.0
7251764976.417042 0.0 0.0 0.9881891250502001 -0.1080341528532532 0.0 0.0 0.0 0.0
7251765137.083788 0.0 0.0 0.9881836958686477 -0.10805868353828703 0.0 0.0 0.0 0.0
7251765297.750535 0.0 0.0 0.9881782629576366 -0.10808322522789848 0.0 0.0 0.0 0.0
7251765458.417281 0.0 0.0 0.9881728263138284 -0.1081077779291051 0.0 0.0 0.0 0.0
7251765619.084028 0.0 0.0 0.9881673859337521 -0.10813234164951356 0.0 0.0 0.0 0.0
7251765779.750774 0.0 0.0 0.9881619418140617 -0.10815691639615392 0.0 0.0 0.0 0.0
7251765940.417521 0.0 0.0 0.9881564939512782 -0.10818150217664593 0.0 0.0 0.0 0.0
7251766101.084268 0.0 0.0 0.9881510423420481 -0.10820609899803213 0.0 0.0 0.0 0.0
7251766261.751015 0.0 0.0 0.9881455869828846 -0.10823070686794538 0.0 0.0 0.0 0.0
7251766422.417763 0.0 0.0 0.9881401278703937 -0.10825532579358693 0.0 0.0 0.0 0.0
7251766583.084508 0.0 0.0 0.9881346650011783 -0.10827995578216427 0.0 0.0 0.0 0.0
7251766743.751255 0.0 0.0 0.9881291983717395 -0.10830459684132983 0.0 0.0 0.0 0.0
7251766904.418001 0.0 0.0 0.9881237279787045 -0.1083292489781577 0.0 0.0 0.0 0.0
7251767065.084747 0.0 0.0 0.9881182538185668 -0.10835391220031342 0.0 0.0 0.0 0.0
7251767225.751494 0.0 0.0 0.9881127758879457 -0.1083785865148837 0.0 0.0 0.0 0.0
7251767386.4182415 0.0 0.0 0.9881072941833267 -0.10840327192954734 0.0 0.0 0.0 0.0
7251767547.084989 0.0 0.0 0.9881018087012889 -0.10842796845155026 0.0 0.0 0.0 0.0
7251767707.751735 0.0 0.0 0.9880963194384076 -0.10845267608814453 0.0 0.0 0.0 0.0
7251767868.418482 0.0 0.0 0.9880908263911562 -0.10847739484702883 0.0 0.0 0.0 0.0
7251768029.085228 0.0 0.0 0.9880853295561348 -0.10850212473532146 0.0 0.0 0.0 0.0
7251768189.751975 0.0 0.0 0.988079828929809 -0.10852686576073428 0.0 0.0 0.0 0.0
7251768350.418721 0.0 0.0 0.9880743245087708 -0.10855161793039834 0.0 0.0 0.0 0.0
7251768511.085468 0.0 0.0 0.9880688162894777 -0.10857638125203876 0.0 0.0 0.0 0.0
7251768671.752214 0.0 0.0 0.9880633042685142 -0.10860115573279938 0.0 0.0 0.0 0.0
7251768832.418962 0.0 0.0 0.9880577884423297 -0.10862594138041858 0.0 0.0 0.0 0.0
7251768993.085709 0.0 0.0 0.988052268807468 -0.10865073820220017 0.0 0.0 0.0 0.0
7251769153.752455 0.0 0.0 0.9880467453604687 -0.10867554620545428 0.0 0.0 0.0 0.0
7251769314.419202 0.0 0.0 0.9880412180977693 -0.10870036539793927 0.0 0.0 0.0 0.0
7251769475.085948 0.0 0.0 0.9880356870159346 -0.10872519578683096 0.0 0.0 0.0 0.0
7251769635.752695 0.0 0.0 0.9880301521113938 -0.10875003737990116 0.0 0.0 0.0 0.0
