! Created with skrf (http://scikit-rf.org).
# Hz S RI R 50.0
!freq ReS11 ImS11 ReS21 ImS21 ReS12 ImS12 ReS22 ImS22
7251730754.4 0.0 0.0 0.9927042093670891 -0.08510324360417547 0.0 0.0 0.0 0.0
7251730915.066747 0.0 0.0 0.9927015677559494 -0.08511853576530547 0.0 0.0 0.0 0.0
7251731075.733493 0.0 0.0 0.9926989247133988 -0.08513383338168543 0.0 0.0 0.0 0.0
7251731236.40024 0.0 0.0 0.9926962802383741 -0.08514913645639391 0.0 0.0 0.0 0.0
7251731397.066986 0.0 0.0 0.9926936343298738 -0.08516444499214826 0.0 0.0 0.0 0.0
7251731557.733733 0.0 0.0 0.9926909869868329 -0.08517975899203117 0.0 0.0 0.0 0.0
7251731718.400479 0.0 0.0 0.9926883382082481 -0.08519507845876392 0.0 0.0 0.0 0.0
7251731879.067226 0.0 0.0 0.9926856879930526 -0.08521040339543347 0.0 0.0 0.0 0.0
7251732039.733973 0.0 0.0 0.9926830363402411 -0.08522573380476503 0.0 0.0 0.0 0.0
7251732200.40072 0.0 0.0 0.992680383248745 -0.08524106968984974 0.0 0.0 0.0 0.0
7251732361.067467 0.0 0.0 0.9926777287175413 -0.08525641105350787 0.0 0.0 0.0 0.0
7251732521.734213 0.0 0.0 0.992675072745607 -0.08527175789856156 0.0 0.0 0.0 0.0
7251732682.400959 0.0 0.0 0.9926724153318699 -0.08528711022810835 0.0 0.0 0.0 0.0
7251732843.067706 0.0 0.0 0.9926697564753205 -0.08530246804488333 0.0 0.0 0.0 0.0
7251733003.734453 0.0 0.0 0.9926670961748854 -0.08531783135198823 0.0 0.0 0.0 0.0
7251733164.401199 0.0 0.0 0.9926644344295527 -0.08533320015216217 0.0 0.0 0.0 0.0
7251733325.067946 0.0 0.0 0.9926617712382472 -0.08534857444851111 0.0 0.0 0.0 0.0
7251733485.734694 0.0 0.0 0.9926591065999395 -0.08536395424386946 0.0 0.0 0.0 0.0
7251733646.40144 0.0 0.0 0.9926564405135998 -0.0853793395410735 0.0 0.0 0.0 0.0
7251733807.068187 0.0 0.0 0.9926537729781495 -0.0853947303432356 0.0 0.0 0.0 0.0
7251733967.734933 0.0 0.0 0.9926511039925726 -0.0854101266531048 0.0 0.0 0.0 0.0
7251734128.40168 0.0 0.0 0.9926484335557887 -0.08542552847379774 0.0 0.0 0.0 0.0
7251734289.068426 0.0 0.0 0.9926457616667799 -0.0854409358080675 0.0 0.0 0.0 0.0
7251734449.735173 0.0 0.0 0.9926430883244638 -0.08545634865903491 0.0 0.0 0.0 0.0
7251734610.401919 0.0 0.0 0.9926404135278207 -0.08547176702945708 0.0 0.0 0.0 0.0
7251734771.068666 0.0 0.0 0.9926377372757664 -0.08548719092245916 0.0 0.0 0.0 0.0
7251734931.735414 0.0 0.0 0.9926350595672632 -0.08550262034089383 0.0 0.0 0.0 0.0
7251735092.40216 0.0 0.0 0.9926323804012728 -0.08551805528761573 0.0 0.0 0.0 0.0
7251735253.068907 0.0 0.0 0.9926296997767079 -0.08553349576575646 0.0 0.0 0.0 0.0
7251735413.735653 0.0 0.0 0.9926270176925441 -0.08554894177808307 0.0 0.0 0.0 0.0
7251735574.4024 0.0 0.0 0.9926243341476924 -0.08556439332773151 0.0 0.0 0.0 0.0
7251735735.069146 0.0 0.0 0.9926216491411263 -0.0855798504174729 0.0 0.0 0.0 0.0
7251735895.735893 0.0 0.0 0.992618962671755 -0.08559531305044744 0.0 0.0 0.0 0.0
7251736056.40264 0.0 0.0 0.9926162747385341 -0.0856107812295221 0.0 0.0 0.0 0.0
7251736217.0693865 0.0 0.0 0.9926135853404187 -0.08562625495756591 0.0 0.0 0.0 0.0
7251736377.736134 0.0 0.0 0.9926108944763147 -0.0856417342377255 0.0 0.0 0.0 0.0
7251736538.40288 0.0 0.0 0.9926082021451911 -0.08565721907278212 0.0 0.0 0.0 0.0
7251736699.069627 0.0 0.0 0.992605508345952 -0.08567270946588673 0.0 0.0 0.0 0.0
7251736859.736373 0.0 0.0 0.9926028130775645 -0.08568820541982466 0.0 0.0 0.0 0.0
7251737020.40312 0.0 0.0 0.9926001163389307 -0.08570370693775121 0.0 0.0 0.0 0.0
7251737181.069866 0.0 0.0 0.9925974181290158 -0.08571921402245573 0.0 0.0 0.0 0.0
7251737341.736613 0.0 0.0 0.99259471844672 -0.08573472667709786 0.0 0.0 0.0 0.0
7251737502.40336 0.0 0.0 0.9925920172909904 -0.08575024490456319 0.0 0.0 0.0 0.0
7251737663.0701065 0.0 0.0 0.9925893146607735 -0.08576576870773926 0.0 0.0 0.0 0.0
7251737823.736854 0.0 0.0 0.9925866105549664 -0.08578129808979224 0.0 0.0 0.0 0.0
7251737984.4036 0.0 0.0 0.9925839049725297 -0.08579683305352168 0.0 0.0 0.0 0.0
7251738145.070347 0.0 0.0 0.9925811979123583 -0.08581237360209808 0.0 0.0 0.0 0.0
7251738305.737093 0.0 0.0 0.9925784893734111 -0.0858279197383251 0.0 0.0 0.0 0.0
7251738466.40384 0.0 0.0 0.9925757793545811 -0.08584347146537755 0.0 0.0 0.0 0.0
7251738627.070586 0.0 0.0 0.9925730678548249 -0.08585902878606326 0.0 0.0 0.0 0.0
7251738787.737333 0.0 0.0 0.992570354873034 -0.08587459170356143 0.0 0.0 0.0 0.0
7251738948.40408 0.0 0.0 0.9925676404081467 -0.08589016022077631 0.0 0.0 0.0 0.0
7251739109.070827 0.0 0.0 0.9925649244591009 -0.08590573434061426 0.0 0.0 0.0 0.0
7251739269.737574 0.0 0.0 0.9925622070247848 -0.08592131406626098 0.0 0.0 0.0 0.0
7251739430.404321 0.0 0.0 0.9925594881041501 -0.0859368994005346 0.0 0.0 0.0 0.0
7251739591.071067 0.0 0.0 0.9925567676960833 -0.08595249034662522 0.0 0.0 0.0 0.0
7251739751.737813 0.0 0.0 0.992554045799534 -0.08596808690735504 0.0 0.0 0.0 0.0
7251739912.40456 0.0 0.0 0.9925513224133867 -0.08598368908591858 0.0 0.0 0.0 0.0
7251740073.071307 0.0 0.0 0.9925485975365733 -0.0859992968852348 0.0 0.0 0.0 0.0
7251740233.738053 0.0 0.0 0.9925458711680244 -0.08601491030822472 0.0 0.0 0.0 0.0
7251740394.4048 0.0 0.0 0.9925431433066213 -0.08603052935808946 0.0 0.0 0.0 0.0
7251740555.071547 0.0 0.0 0.9925404139513092 -0.08604615403766153 0.0 0.0 0.0 0.0
7251740715.738294 0.0 0.0 0.9925376831009673 -0.08606178435014647 0.0 0.0 0.0 0.0
7251740876.40504 0.0 0.0 0.9925349507545387 -0.08607742029838099 0.0 0.0 0.0 0.0
7251741037.071787 0.0 0.0 0.9925322169109007 -0.08609306188557506 0.0 0.0 0.0 0.0
7251741197.738533 0.0 0.0 0.9925294815689945 -0.08610870911456948 0.0 0.0 0.0 0.0
7251741358.40528 0.0 0.0 0.9925267447276952 -0.08612436198857869 0.0 0.0 0.0 0.0
7251741519.072027 0.0 0.0 0.992524006385926 -0.08614002051054062 0.0 0.0 0.0 0.0
7251741679.738773 0.0 0.0 0.9925212665426086 -0.08615568468339523 0.0 0.0 0.0 0.0
7251741840.40552 0.0 0.0 0.9925185251966155 -0.08617135451036359 0.0 0.0 0.0 0.0
7251742001.072267 0.0 0.0 0.992515782346883 -0.08618702999429695 0.0 0.0 0.0 0.0
7251742161.739014 0.0 0.0 0.992513037992281 -0.08620271113842083 0.0 0.0 0.0 0.0
7251742322.40576 0.0 0.0 0.9925102921317439 -0.08621839794559064 0.0 0.0 0.0 0.0
7251742483.072507 0.0 0.0 0.99250754476414 -0.08623409041903637 0.0 0.0 0.0 0.0
7251742643.739254 0.0 0.0 0.9925047958883854 -0.08624978856171082 0.0 0.0 0.0 0.0
7251742804.406001 0.0 0.0 0.9925020455033949 -0.08626549237656884 0.0 0.0 0.0 0.0
7251742965.072747 0.0 0.0 0.9924992936080339 -0.08628120186684708 0.0 0.0 0.0 0.0
7251743125.739493 0.0 0.0 0.9924965402012316 -0.08629691703541148 0.0 0.0 0.0 0.0
7251743286.40624 0.0 0.0 0.9924937852818511 -0.08631263788550317 0.0 0.0 0.0 0.0
7251743447.072986 0.0 0.0 0.9924910288488198 -0.08632836441999227 0.0 0.0 0.0 0.0
7251743607.739734 0.0 0.0 0.9924882709009987 -0.0863440966421244 0.0 0.0 0.0 0.0
7251743768.40648 0.0 0.0 0.9924855114373133 -0.0863598345547739 0.0 0.0 0.0 0.0
7251743929.073227 0.0 0.0 0.9924827504566226 -0.08637557816119092 0.0 0.0 0.0 0.0
7251744089.739974 0.0 0.0 0.9924799879578335 -0.08639132746434747 0.0 0.0 0.0 0.0
7251744250.40672 0.0 0.0 0.9924772239398523 -0.0864070824672177 0.0 0.0 0.0 0.0
7251744411.073467 0.0 0.0 0.9924744584015347 -0.08642284317305844 0.0 0.0 0.0 0.0
7251744571.740213 0.0 0.0 0.9924716913418012 -0.08643860958475462 0.0 0.0 0.0 0.0
7251744732.4069605 0.0 0.0 0.9924689227595057 -0.08645438170556763 0.0 0.0 0.0 0.0
7251744893.073707 0.0 0.0 0.9924661526535666 -0.08647015953838662 0.0 0.0 0.0 0.0
7251745053.740454 0.0 0.0 0.9924633810228356 -0.08648594308647743 0.0 0.0 0.0 0.0
7251745214.407201 0.0 0.0 0.9924606078662128 -0.08650173235282727 0.0 0.0 0.0 0.0
7251745375.073947 0.0 0.0 0.9924578331825973 -0.08651752734042531 0.0 0.0 0.0 0.0
7251745535.740695 0.0 0.0 0.9924550569708375 -0.08653332805254423 0.0 0.0 0.0 0.0
7251745696.40744 0.0 0.0 0.992452279229847 -0.08654913449208383 0.0 0.0 0.0 0.0
7251745857.074187 0.0 0.0 0.9924494999584723 -0.08656494666232135 0.0 0.0 0.0 0.0
7251746017.740933 0.0 0.0 0.992446719155625 -0.0865807645661608 0.0 0.0 0.0 0.0
7251746178.40768 0.0 0.0 0.9924439368201494 -0.086596588206884 0.0 0.0 0.0 0.0
7251746339.074427 0.0 0.0 0.9924411529509551 -0.08661241758739927 0.0 0.0 0.0 0.0
7251746499.741174 0.0 0.0 0.9924383675468843 -0.08662825271099292 0.0 0.0 0.0 0.0
7251746660.407921 0.0 0.0 0.992435580606828 -0.08664409358067161 0.0 0.0 0.0 0.0
7251746821.074666 0.0 0.0 0.9924327921296761 -0.0866599401994441 0.0 0.0 0.0 0.0
7251746981.741414 0.0 0.0 0.9924300021142677 -0.08667579257060358 0.0 0.0 0.0 0.0
7251747142.40816 0.0 0.0 0.9924272105595073 -0.08669165069706906 0.0 0.0 0.0 0.0
7251747303.074907 0.0 0.0 0.992424417464232 -0.08670751458213831 0.0 0.0 0.0 0.0
7251747463.741653 0.0 0.0 0.9924216228273443 -0.08672338422873468 0.0 0.0 0.0 0.0
7251747624.408401 0.0 0.0 0.9924188266476789 -0.08673925964016051 0.0 0.0 0.0 0.0
7251747785.075147 0.0 0.0 0.9924160289241364 -0.08675514081934345 0.0 0.0 0.0 0.0
7251747945.741894 0.0 0.0 0.9924132296555496 -0.08677102776959043 0.0 0.0 0.0 0.0
7251748106.408641 0.0 0.0 0.9924104288408001 -0.08678692049392779 0.0 0.0 0.0 0.0
7251748267.075387 0.0 0.0 0.9924076264787687 -0.08680281899538397 0.0 0.0 0.0 0.0
7251748427.742134 0.0 0.0 0.9924048225682851 -0.0868187232772728 0.0 0.0 0.0 0.0
7251748588.40888 0.0 0.0 0.9924020171082445 -0.08683463334253275 0.0 0.0 0.0 0.0
7251748749.075627 0.0 0.0 0.9923992100974744 -0.08685054919448221 0.0 0.0 0.0 0.0
7251748909.742373 0.0 0.0 0.9923964015348683 -0.08686647083606405 0.0 0.0 0.0 0.0
7251749070.409121 0.0 0.0 0.9923935914192513 -0.08688239827060129 0.0 0.0 0.0 0.0
7251749231.075868 0.0 0.0 0.9923907797494981 -0.0868983315011357 0.0 0.0 0.0 0.0
7251749391.742614 0.0 0.0 0.9923879665244819 -0.08691427053071116 0.0 0.0 0.0 0.0
7251749552.40936 0.0 0.0 0.9923851517430252 -0.08693021536265762 0.0 0.0 0.0 0.0
7251749713.076107 0.0 0.0 0.9923823354040159 -0.0869461659999288 0.0 0.0 0.0 0.0
7251749873.742854 0.0 0.0 0.9923795175062742 -0.08696212244585932 0.0 0.0 0.0 0.0
7251750034.4096 0.0 0.0 0.992376698048686 -0.08697808470340725 0.0 0.0 0.0 0.0
7251750195.076347 0.0 0.0 0.9923738770300694 -0.08699405277591184 0.0 0.0 0.0 0.0
7251750355.7430935 0.0 0.0 0.9923710544493082 -0.08701002666633555 0.0 0.0 0.0 0.0
7251750516.409841 0.0 0.0 0.9923682303052183 -0.08702600637802227 0.0 0.0 0.0 0.0
7251750677.076588 0.0 0.0 0.9923654045966647 -0.08704199191403375 0.0 0.0 0.0 0.0
7251750837.743334 0.0 0.0 0.9923625773225114 -0.08705798327743386 0.0 0.0 0.0 0.0
7251750998.410081 0.0 0.0 0.9923597484815712 -0.08707398047157348 0.0 0.0 0.0 0.0
7251751159.076827 0.0 0.0 0.9923569180727226 -0.08708998349942604 0.0 0.0 0.0 0.0
7251751319.743574 0.0 0.0 0.9923540860947762 -0.08710599236434712 0.0 0.0 0.0 0.0
7251751480.41032 0.0 0.0 0.9923512525466085 -0.08712200706931454 0.0 0.0 0.0 0.0
7251751641.077067 0.0 0.0 0.992348417427028 -0.08713802761768855 0.0 0.0 0.0 0.0
7251751801.743814 0.0 0.0 0.9923455807348921 -0.08715405401254651 0.0 0.0 0.0 0.0
7251751962.410561 0.0 0.0 0.9923427424690576 -0.08717008625696798 0.0 0.0 0.0 0.0
7251752123.077308 0.0 0.0 0.9923399026283295 -0.08718612435432023 0.0 0.0 0.0 0.0
7251752283.744054 0.0 0.0 0.9923370612115793 -0.08720216830759213 0.0 0.0 0.0 0.0
7251752444.410801 0.0 0.0 0.9923342182176097 -0.08721821812015566 0.0 0.0 0.0 0.0
7251752605.077547 0.0 0.0 0.9923313736452901 -0.08723427379500412 0.0 0.0 0.0 0.0
7251752765.744294 0.0 0.0 0.9923285274934212 -0.08725033533551423 0.0 0.0 0.0 0.0
7251752926.41104 0.0 0.0 0.9923256797608699 -0.08726640274468372 0.0 0.0 0.0 0.0
7251753087.077787 0.0 0.0 0.9923228304464351 -0.08728247602589399 0.0 0.0 0.0 0.0
7251753247.7445345 0.0 0.0 0.9923199795489646 -0.0872985551822427 0.0 0.0 0.0 0.0
7251753408.411281 0.0 0.0 0.9923171270673057 -0.08731464021682962 0.0 0.0 0.0 0.0
7251753569.078028 0.0 0.0 0.9923142730002534 -0.08733073113304328 0.0 0.0 0.0 0.0
7251753729.744774 0.0 0.0 0.9923114173466698 -0.08734682793389253 0.0 0.0 0.0 0.0
7251753890.411521 0.0 0.0 0.992308560105348 -0.08736293062277065 0.0 0.0 0.0 0.0
7251754051.078267 0.0 0.0 0.9923057012751473 -0.08737903920269094 0.0 0.0 0.0 0.0
7251754211.745014 0.0 0.0 0.992302840854859 -0.08739515367705143 0.0 0.0 0.0 0.0
7251754372.41176 0.0 0.0 0.9922999788433403 -0.08741127404886989 0.0 0.0 0.0 0.0
7251754533.078507 0.0 0.0 0.9922971152393802 -0.08742740032154911 0.0 0.0 0.0 0.0
7251754693.7452545 0.0 0.0 0.9922942500418169 -0.08744353249820715 0.0 0.0 0.0 0.0
7251754854.412001 0.0 0.0 0.9922913832494881 -0.0874596705819642 0.0 0.0 0.0 0.0
7251755015.078748 0.0 0.0 0.9922885148611787 -0.0874758145762302 0.0 0.0 0.0 0.0
7251755175.745494 0.0 0.0 0.9922856448757413 -0.08749196448403414 0.0 0.0 0.0 0.0
7251755336.412241 0.0 0.0 0.9922827732919589 -0.08750812030879074 0.0 0.0 0.0 0.0
7251755497.078987 0.0 0.0 0.9922799001086816 -0.08752428205353352 0.0 0.0 0.0 0.0
7251755657.745734 0.0 0.0 0.9922770253246902 -0.08754044972168194 0.0 0.0 0.0 0.0
7251755818.412481 0.0 0.0 0.9922741489388157 -0.08755662331637007 0.0 0.0 0.0 0.0
7251755979.079227 0.0 0.0 0.9922712709498879 -0.08757280284073411 0.0 0.0 0.0 0.0
7251756139.745975 0.0 0.0 0.9922683913566842 -0.08758898829820075 0.0 0.0 0.0 0.0
7251756300.412721 0.0 0.0 0.9922655101580496 -0.08760517969181482 0.0 0.0 0.0 0.0
7251756461.079468 0.0 0.0 0.9922626273527592 -0.08762137702500777 0.0 0.0 0.0 0.0
7251756621.746214 0.0 0.0 0.9922597429396556 -0.08763758030082895 0.0 0.0 0.0 0.0
7251756782.412961 0.0 0.0 0.9922568569175118 -0.08765378952271467 0.0 0.0 0.0 0.0
7251756943.079708 0.0 0.0 0.9922539692851682 -0.08767000469371879 0.0 0.0 0.0 0.0
7251757103.746454 0.0 0.0 0.9922510800413957 -0.08768622581728246 0.0 0.0 0.0 0.0
7251757264.413201 0.0 0.0 0.9922481891850153 -0.0877024528965604 0.0 0.0 0.0 0.0
7251757425.079947 0.0 0.0 0.9922452967148471 -0.08771868593470958 0.0 0.0 0.0 0.0
7251757585.746695 0.0 0.0 0.9922424026296582 -0.0877349249351784 0.0 0.0 0.0 0.0
7251757746.413441 0.0 0.0 0.992239506928284 -0.0877511699010321 0.0 0.0 0.0 0.0
7251757907.080188 0.0 0.0 0.9922366096094895 -0.08776742083572392 0.0 0.0 0.0 0.0
7251758067.746934 0.0 0.0 0.9922337106721073 -0.08778367774232365 0.0 0.0 0.0 0.0
7251758228.413681 0.0 0.0 0.9922308101149006 -0.0877999406242894 0.0 0.0 0.0 0.0
7251758389.080428 0.0 0.0 0.9922279079366824 -0.08781620948479214 0.0 0.0 0.0 0.0
7251758549.747174 0.0 0.0 0.9922250041362654 -0.08783248432700508 0.0 0.0 0.0 0.0
7251758710.413921 0.0 0.0 0.9922220987124087 -0.08784876515439359 0.0 0.0 0.0 0.0
7251758871.0806675 0.0 0.0 0.9922191916639399 -0.08786505197003892 0.0 0.0 0.0 0.0
7251759031.747415 0.0 0.0 0.9922162829896161 -0.08788134477741137 0.0 0.0 0.0 0.0
7251759192.414161 0.0 0.0 0.9922133726882623 -0.08789764357959681 0.0 0.0 0.0 0.0
7251759353.080908 0.0 0.0 0.9922104607586335 -0.08791394838007034 0.0 0.0 0.0 0.0
7251759513.747654 0.0 0.0 0.9922075471995527 -0.08793025918192245 0.0 0.0 0.0 0.0
7251759674.414402 0.0 0.0 0.9922046320097725 -0.08794657598863319 0.0 0.0 0.0 0.0
7251759835.081148 0.0 0.0 0.9922017151880962 -0.08796289880339454 0.0 0.0 0.0 0.0
7251759995.747894 0.0 0.0 0.9921987967333261 -0.08797922762940073 0.0 0.0 0.0 0.0
7251760156.414641 0.0 0.0 0.9921958766442115 -0.08799556247013916 0.0 0.0 0.0 0.0
7251760317.081387 0.0 0.0 0.9921929549195696 -0.08801190332871185 0.0 0.0 0.0 0.0
7251760477.748135 0.0 0.0 0.9921900315581474 -0.08802825020861108 0.0 0.0 0.0 0.0
7251760638.414881 0.0 0.0 0.9921871065587601 -0.08804460311294354 0.0 0.0 0.0 0.0
7251760799.081628 0.0 0.0 0.9921841799201522 -0.08806096204520646 0.0 0.0 0.0 0.0
7251760959.748373 0.0 0.0 0.9921812516411366 -0.08807732700851109 0.0 0.0 0.0 0.0
7251761120.415121 0.0 0.0 0.9921783217204556 -0.08809369800635966 0.0 0.0 0.0 0.0
7251761281.081868 0.0 0.0 0.9921753901569026 -0.0881100750419653 0.0 0.0 0.0 0.0
7251761441.748614 0.0 0.0 0.9921724569492696 -0.08812645811854344 0.0 0.0 0.0 0.0
7251761602.415361 0.0 0.0 0.9921695220962955 -0.0881428472396037 0.0 0.0 0.0 0.0
7251761763.082108 0.0 0.0 0.9921665855967876 -0.08815924240826896 0.0 0.0 0.0 0.0
7251761923.748855 0.0 0.0 0.9921636474494825 -0.08817564362805379 0.0 0.0 0.0 0.0
7251762084.415601 0.0 0.0 0.9921607076531851 -0.0881920509020858 0.0 0.0 0.0 0.0
7251762245.082348 0.0 0.0 0.9921577662066297 -0.0882084642338845 0.0 0.0 0.0 0.0
7251762405.749095 0.0 0.0 0.9921548231086015 -0.0882248836266796 0.0 0.0 0.0 0.0
7251762566.415841 0.0 0.0 0.9921518783578849 -0.0882413090837032 0.0 0.0 0.0 0.0
7251762727.082588 0.0 0.0 0.9921489319532105 -0.08825774060848224 0.0 0.0 0.0 0.0
7251762887.749334 0.0 0.0 0.9921459838933778 -0.08827417820415605 0.0 0.0 0.0 0.0
7251763048.416082 0.0 0.0 0.992143034177115 -0.08829062187425656 0.0 0.0 0.0 0.0
7251763209.082828 0.0 0.0 0.9921400828032194 -0.08830707162192779 0.0 0.0 0.0 0.0
7251763369.749575 0.0 0.0 0.992137129770417 -0.08832352745070672 0.0 0.0 0.0 0.0
7251763530.416321 0.0 0.0 0.9921341750775026 -0.08833998936374206 0.0 0.0 0.0 0.0
7251763691.083067 0.0 0.0 0.9921312187231998 -0.08835645736457576 0.0 0.0 0.0 0.0
7251763851.749815 0.0 0.0 0.9921282607062838 -0.08837293145645908 0.0 0.0 0.0 0.0
7251764012.416561 0.0 0.0 0.9921253010255284 -0.08838941164264556 0.0 0.0 0.0 0.0
7251764173.083308 0.0 0.0 0.9921223396796539 -0.08840589792668467 0.0 0.0 0.0 0.0
7251764333.750054 0.0 0.0 0.9921193766674493 -0.08842239031173697 0.0 0.0 0.0 0.0
7251764494.416801 0.0 0.0 0.9921164119876325 -0.08843888880135693 0.0 0.0 0.0 0.0
7251764655.083548 0.0 0.0 0.9921134456389903 -0.08845539339870986 0.0 0.0 0.0 0.0
7251764815.750295 0.0 0.0 0.9921104776202382 -0.08847190410735527 0.0 0.0 0.0 0.0
7251764976.417042 0.0 0.0 0.992107507930143 -0.08848842093056127 0.0 0.0 0.0 0.0
7251765137.083788 0.0 0.0 0.9921045365674709 -0.08850494387159823 0.0 0.0 0.0 0.0
7251765297.750535 0.0 0.0 0.9921015635309334 -0.08852147293403327 0.0 0.0 0.0 0.0
7251765458.417281 0.0 0.0 0.9920985888193117 -0.0885380081210436 0.0 0.0 0.0 0.0
7251765619.084028 0.0 0.0 0.9920956124313154 -0.0885545494362013 0.0 0.0 0.0 0.0
7251765779.750774 0.0 0.0 0.9920926343657233 -0.08857109688268834 0.0 0.0 0.0 0.0
7251765940.417521 0.0 0.0 0.9920896546212424 -0.08858765046408199 0.0 0.0 0.0 0.0
7251766101.084268 0.0 0.0 0.9920866731966493 -0.08860421018356891 0.0 0.0 0.0 0.0
7251766261.751015 0.0 0.0 0.9920836900906487 -0.08862077604473144 0.0 0.0 0.0 0.0
7251766422.417763 0.0 0.0 0.992080705301997 -0.08863734805085943 0.0 0.0 0.0 0.0
7251766583.084508 0.0 0.0 0.9920777188294497 -0.08865392620524516 0.0 0.0 0.0 0.0
7251766743.751255 0.0 0.0 0.9920747306717078 -0.08867051051147852 0.0 0.0 0.0 0.0
7251766904.418001 0.0 0.0 0.9920717408275421 -0.08868710097275824 0.0 0.0 0.0 0.0
7251767065.084747 0.0 0.0 0.9920687492956513 -0.08870369759267932 0.0 0.0 0.0 0.0
7251767225.751494 0.0 0.0 0.9920657560748037 -0.08872030037444528 0.0 0.0 0.0 0.0
7251767386.4182415 0.0 0.0 0.9920627611636956 -0.08873690932165627 0.0 0.0 0.0 0.0
7251767547.084989 0.0 0.0 0.9920597645610754 -0.08875352443761926 0.0 0.0 0.0 0.0
7251767707.751735 0.0 0.0 0.9920567662656902 -0.08877014572564358 0.0 0.0 0.0 0.0
7251767868.418482 0.0 0.0 0.9920537662762324 -0.08878677318933703 0.0 0.0 0.0 0.0
7251768029.085228 0.0 0.0 0.992050764591465 -0.08880340683191518 0.0 0.0 0.0 0.0
7251768189.751975 0.0 0.0 0.992047761210078 -0.08882004665699099 0.0 0.0 0.0 0.0
7251768350.418721 0.0 0.0 0.9920447561308317 -0.08883669266778486 0.0 0.0 0.0 0.0
7251768511.085468 0.0 0.0 0.9920417493524135 -0.08885334486791491 0.0 0.0 0.0 0.0
7251768671.752214 0.0 0.0 0.9920387408735818 -0.08887000326060635 0.0 0.0 0.0 0.0
7251768832.418962 0.0 0.0 0.9920357306930218 -0.08888666784948245 0.0 0.0 0.0 0.0
7251768993.085709 0.0 0.0 0.9920327188094709 -0.08890333863787231 0.0 0.0 0.0 0.0
7251769153.752455 0.0 0.0 0.9920297052216658 -0.08892001562910738 0.0 0.0 0.0 0.0
7251769314.419202 0.0 0.0 0.9920266899282881 -0.08893669882681864 0.0 0.0 0.0 0.0
7251769475.085948 0.0 0.0 0.9920236729280899 -0.08895338823424348 0.0 0.0 0.0 0.0
7251769635.752695 0.0 0.0 0.9920206542197503 -0.0889700838550181 0.0 0.0 0.0 0.0
